 (1742566710.203458)  can0  182   [7]  00 00 9F 7C FF FF 00
 (1742566710.203660)  can0  282   [6]  27 00 01 00 04 01
 (1742566710.204673)  can0  181   [7]  8B FF EA 75 FF FF 00
 (1742566710.204868)  can0  281   [6]  29 00 EE FF 04 01
 (1742566710.208442)  can0  182   [7]  00 00 9F 7C FF FF 00
 (1742566710.208760)  can0  282   [6]  12 00 02 00 04 01
 (1742566710.209669)  can0  181   [7]  8B FF EA 75 FF FF 00
 (1742566710.209799)  can0  281   [6]  29 00 EE FF 04 01
 (1742566710.213417)  can0  182   [7]  00 00 9F 7C FF FF 00
 (1742566710.213694)  can0  282   [6]  02 00 05 00 04 01
 (1742566710.215581)  can0  181   [7]  8C FF EA 75 FF FF 00
 (1742566710.215601)  can0  281   [6]  29 00 EE FF 04 01
 (1742566710.218391)  can0  182   [7]  00 00 9F 7C FF FF 00
 (1742566710.218688)  can0  282   [6]  04 00 0A 00 04 01
 (1742566710.219567)  can0  181   [7]  8C FF EA 75 FF FF 00
 (1742566710.219792)  can0  281   [6]  29 00 EE FF 04 01
 (1742566710.223460)  can0  182   [7]  00 00 9F 7C FF FF 00
 (1742566710.223714)  can0  282   [6]  0A 00 14 00 04 01
 (1742566710.224575)  can0  181   [7]  8D FF EA 75 FF FF 00
 (1742566710.224790)  can0  281   [6]  29 00 EE FF 04 01
 (1742566710.228385)  can0  182   [7]  00 00 9F 7C FF FF 00
 (1742566710.228652)  can0  282   [6]  4A 00 1C 00 04 01
 (1742566710.229616)  can0  181   [7]  8D FF EA 75 FF FF 00
 (1742566710.229749)  can0  281   [6]  29 00 EE FF 04 01
 (1742566710.233357)  can0  182   [7]  00 00 9F 7C FF FF 00
 (1742566710.233626)  can0  282   [6]  A4 00 1D 00 04 01
 (1742566710.234553)  can0  181   [7]  8E FF EA 75 FF FF 00
 (1742566710.234773)  can0  281   [6]  29 00 EE FF 04 01
 (1742566710.238353)  can0  182   [7]  00 00 9F 7C FF FF 00
 (1742566710.238626)  can0  282   [6]  E4 00 1D 00 04 01
 (1742566710.239552)  can0  181   [7]  8E FF E9 75 FF FF 00
 (1742566710.239774)  can0  281   [6]  29 00 EE FF 04 01
 (1742566710.243378)  can0  182   [7]  00 00 9F 7C FF FF 00
 (1742566710.243652)  can0  282   [6]  10 01 1C 00 04 01
 (1742566710.244502)  can0  181   [7]  8F FF E9 75 FF FF 00
 (1742566710.244723)  can0  281   [6]  27 00 01 00 04 01
 (1742566710.248378)  can0  182   [7]  00 00 9F 7C FF FF 00
 (1742566710.248721)  can0  282   [6]  25 01 1C 00 04 01
 (1742566710.249570)  can0  181   [7]  8F FF E9 75 FF FF 00
 (1742566710.249790)  can0  281   [6]  27 00 01 00 03 01
 (1742566710.253430)  can0  182   [7]  00 00 9F 7C FF FF 00
 (1742566710.253718)  can0  282   [6]  29 01 1A 00 04 01
 (1742566710.254630)  can0  181   [7]  8F FF E9 75 FF FF 00
 (1742566710.254843)  can0  281   [6]  27 00 01 00 03 01
 (1742566710.257048)  can0  601   [8]  2B 43 40 00 9A FF 00 00
 (1742566710.257639)  can0  581   [8]  60 43 40 00 00 00 00 00
 (1742566710.258444)  can0  182   [7]  00 00 9F 7C FF FF 00
 (1742566710.258702)  can0  282   [6]  19 01 17 00 04 01
 (1742566710.259619)  can0  181   [7]  8F FF E9 75 FF FF 00
 (1742566710.259817)  can0  281   [6]  27 00 F6 FF 03 01
 (1742566710.263420)  can0  182   [7]  00 00 9F 7C FF FF 00
 (1742566710.263673)  can0  282   [6]  F1 00 15 00 04 01
 (1742566710.264646)  can0  181   [7]  8F FF E9 75 FF FF 00
 (1742566710.264833)  can0  281   [6]  27 00 EE FF 03 01
 (1742566710.267024)  can0  602   [8]  2B 43 40 00 04 00 00 00
 (1742566710.267463)  can0  582   [8]  60 43 40 00 00 00 00 00
 (1742566710.268413)  can0  182   [7]  00 00 9F 7C FF FF 00
 (1742566710.268667)  can0  282   [6]  CC 00 04 00 04 01
 (1742566710.269571)  can0  181   [7]  8F FF E9 75 FF FF 00
 (1742566710.269774)  can0  281   [6]  27 00 EE FF 03 01
 (1742566710.273415)  can0  182   [7]  00 00 9F 7C FF FF 00
 (1742566710.273698)  can0  282   [6]  5D 00 0C 00 04 01
 (1742566710.274572)  can0  181   [7]  8F FF E9 75 FF FF 00
 (1742566710.274797)  can0  281   [6]  27 00 EE FF 03 01
 (1742566710.278431)  can0  182   [7]  00 00 9F 7C FF FF 00
 (1742566710.278723)  can0  282   [6]  14 00 14 00 04 01
 (1742566710.279622)  can0  181   [7]  8F FF E9 75 FF FF 00
 (1742566710.279806)  can0  281   [6]  27 00 EE FF 03 01
 (1742566710.283424)  can0  182   [7]  00 00 9F 7C FF FF 00
 (1742566710.283662)  can0  282   [6]  2B 00 14 00 04 01
 (1742566710.284640)  can0  181   [7]  8F FF E9 75 FF FF 00
 (1742566710.284832)  can0  281   [6]  27 00 EE FF 03 01
 (1742566710.288425)  can0  182   [7]  00 00 9F 7C FF FF 00
 (1742566710.288669)  can0  282   [6]  27 00 14 00 04 01
 (1742566710.289643)  can0  181   [7]  8F FF E9 75 FF FF 00
 (1742566710.289838)  can0  281   [6]  27 00 EE FF 03 01
 (1742566710.293403)  can0  182   [7]  00 00 9F 7C FF FF 00
 (1742566710.293662)  can0  282   [6]  21 00 14 00 04 01
 (1742566710.294579)  can0  181   [7]  8F FF E9 75 FF FF 00
 (1742566710.294784)  can0  281   [6]  27 00 EE FF 03 01
 (1742566710.298436)  can0  182   [7]  00 00 9F 7C FF FF 00
 (1742566710.298666)  can0  282   [6]  2B 00 14 00 04 01
 (1742566710.299568)  can0  181   [7]  8F FF E9 75 FF FF 00
 (1742566710.299781)  can0  281   [6]  27 00 EE FF 03 01
 (1742566710.303396)  can0  182   [7]  00 00 9F 7C FF FF 00
 (1742566710.303674)  can0  282   [6]  2D 00 14 00 04 01
 (1742566710.304509)  can0  181   [7]  8F FF E9 75 FF FF 00
 (1742566710.304730)  can0  281   [6]  27 00 EE FF 03 01
 (1742566710.308386)  can0  182   [7]  00 00 9F 7C FF FF 00
 (1742566710.308689)  can0  282   [6]  2D 00 14 00 04 01
 (1742566710.309501)  can0  181   [7]  8F FF E9 75 FF FF 00
 (1742566710.309724)  can0  281   [6]  27 00 EE FF 03 01
 (1742566710.313377)  can0  182   [7]  00 00 9F 7C FF FF 00
 (1742566710.313650)  can0  282   [6]  29 00 14 00 04 01
 (1742566710.314576)  can0  181   [7]  8F FF E9 75 FF FF 00
 (1742566710.314772)  can0  281   [6]  27 00 EE FF 03 01
 (1742566710.318377)  can0  182   [7]  00 00 9F 7C FF FF 00
 (1742566710.318651)  can0  282   [6]  25 00 14 00 04 01
 (1742566710.319576)  can0  181   [7]  8F FF E9 75 FF FF 00
 (1742566710.319771)  can0  281   [6]  27 00 EE FF 03 01
 (1742566710.321952)  can0  601   [8]  2B 43 40 00 9F FF 00 00
 (1742566710.322575)  can0  581   [8]  60 43 40 00 00 00 00 00
 (1742566710.323986)  can0  182   [7]  00 00 9F 7C FF FF 00
 (1742566710.323988)  can0  282   [6]  23 00 14 00 04 01
 (1742566710.324552)  can0  181   [7]  8F FF E9 75 FF FF 00
 (1742566710.324774)  can0  281   [6]  27 00 EE FF 03 01
 (1742566710.328352)  can0  182   [7]  00 00 9F 7C FF FF 00
 (1742566710.328625)  can0  282   [6]  21 00 14 00 04 01
 (1742566710.329551)  can0  181   [7]  8F FF E9 75 FF FF 00
 (1742566710.329747)  can0  281   [6]  27 00 EE FF 03 01
 (1742566710.331927)  can0  602   [8]  2B 43 40 00 0D 00 00 00
 (1742566710.332346)  can0  582   [8]  60 43 40 00 00 00 00 00
 (1742566710.333375)  can0  182   [7]  00 00 9F 7C FF FF 00
 (1742566710.333650)  can0  282   [6]  1F 00 14 00 04 01
 (1742566710.334501)  can0  181   [7]  8F FF E9 75 FF FF 00
 (1742566710.334721)  can0  281   [6]  27 00 EE FF 03 01
 (1742566710.338326)  can0  182   [7]  00 00 9F 7C FF FF 00
 (1742566710.338601)  can0  282   [6]  21 00 14 00 04 01
 (1742566710.339577)  can0  181   [7]  8F FF E9 75 FF FF 00
 (1742566710.339773)  can0  281   [6]  27 00 EE FF 03 01
 (1742566710.343376)  can0  182   [7]  00 00 9F 7C FF FF 00
 (1742566710.343651)  can0  282   [6]  23 00 14 00 04 01
 (1742566710.344502)  can0  181   [7]  8F FF E9 75 FF FF 00
 (1742566710.344722)  can0  281   [6]  27 00 EE FF 03 01
 (1742566710.348353)  can0  182   [7]  00 00 A0 7C FF FF 00
 (1742566710.348627)  can0  282   [6]  1B 00 00 00 04 01
 (1742566710.349578)  can0  181   [7]  8F FF E9 75 FF FF 00
 (1742566710.349799)  can0  281   [6]  27 00 EE FF 03 01
 (1742566710.353353)  can0  182   [7]  00 00 A0 7C FF FF 00
 (1742566710.353626)  can0  282   [6]  06 00 00 00 04 01
 (1742566710.354501)  can0  181   [7]  8F FF E9 75 FF FF 00
 (1742566710.354723)  can0  281   [6]  27 00 EE FF 03 01
 (1742566710.358352)  can0  182   [7]  00 00 A0 7C FF FF 00
 (1742566710.358627)  can0  282   [6]  00 00 00 00 04 01
 (1742566710.359502)  can0  181   [7]  8F FF E9 75 FF FF 00
 (1742566710.359723)  can0  281   [6]  27 00 DA FF 03 01
 (1742566710.363353)  can0  182   [7]  00 00 A0 7C FF FF 00
 (1742566710.363627)  can0  282   [6]  00 00 00 00 04 01
 (1742566710.364552)  can0  181   [7]  94 FF E8 75 FF FF 00
 (1742566710.364749)  can0  281   [6]  25 00 EE FF 04 01
 (1742566710.368327)  can0  182   [7]  00 00 A0 7C FF FF 00
 (1742566710.368601)  can0  282   [6]  00 00 00 00 04 01
 (1742566710.369554)  can0  181   [7]  94 FF E8 75 FF FF 00
 (1742566710.369774)  can0  281   [6]  25 00 EE FF 04 01
 (1742566710.373377)  can0  182   [7]  00 00 A0 7C FF FF 00
 (1742566710.373652)  can0  282   [6]  00 00 00 00 04 01
 (1742566710.374578)  can0  181   [7]  94 FF E8 75 FF FF 00
 (1742566710.374774)  can0  281   [6]  25 00 EE FF 03 01
 (1742566710.378377)  can0  182   [7]  00 00 A0 7C FF FF 00
 (1742566710.378714)  can0  282   [6]  00 00 00 00 04 01
 (1742566710.379569)  can0  181   [7]  94 FF E8 75 FF FF 00
 (1742566710.379788)  can0  281   [6]  25 00 EE FF 03 01
 (1742566710.383418)  can0  182   [7]  00 00 A0 7C FF FF 00
 (1742566710.383715)  can0  282   [6]  00 00 00 00 04 01
 (1742566710.384622)  can0  181   [7]  94 FF E8 75 FF FF 00
 (1742566710.384807)  can0  281   [6]  25 00 EE FF 03 01
 (1742566710.387018)  can0  601   [8]  2B 43 40 00 A4 FF 00 00
 (1742566710.387618)  can0  581   [8]  60 43 40 00 00 00 00 00
 (1742566710.388444)  can0  182   [7]  00 00 A0 7C FF FF 00
 (1742566710.388691)  can0  282   [6]  00 00 00 00 04 01
 (1742566710.389578)  can0  181   [7]  94 FF E8 75 FF FF 00
 (1742566710.389781)  can0  281   [6]  25 00 EE FF 03 01
 (1742566710.393426)  can0  182   [7]  00 00 A0 7C FF FF 00
 (1742566710.393663)  can0  282   [6]  00 00 00 00 04 01
 (1742566710.394617)  can0  181   [7]  94 FF E8 75 FF FF 00
 (1742566710.394828)  can0  281   [6]  25 00 EE FF 03 01
 (1742566710.396991)  can0  602   [8]  2B 43 40 00 17 00 00 00
 (1742566710.397442)  can0  582   [8]  60 43 40 00 00 00 00 00
 (1742566710.398440)  can0  182   [7]  00 00 A0 7C FF FF 00
 (1742566710.398667)  can0  282   [6]  00 00 00 00 04 01
 (1742566710.399638)  can0  181   [7]  94 FF E8 75 FF FF 00
 (1742566710.399857)  can0  281   [6]  25 00 EE FF 03 01
 (1742566710.403443)  can0  182   [7]  00 00 A0 7C FF FF 00
 (1742566710.403720)  can0  282   [6]  00 00 00 00 04 01
 (1742566710.404569)  can0  181   [7]  94 FF E8 75 FF FF 00
 (1742566710.404791)  can0  281   [6]  25 00 EE FF 03 01
 (1742566710.408418)  can0  182   [7]  00 00 A0 7C FF FF 00
 (1742566710.408671)  can0  282   [6]  00 00 00 00 04 01
 (1742566710.409567)  can0  181   [7]  94 FF E8 75 FF FF 00
 (1742566710.409788)  can0  281   [6]  25 00 EE FF 03 01
 (1742566710.413414)  can0  182   [7]  00 00 A0 7C FF FF 00
 (1742566710.413682)  can0  282   [6]  00 00 00 00 04 01
 (1742566710.414619)  can0  181   [7]  94 FF E8 75 FF FF 00
 (1742566710.414804)  can0  281   [6]  25 00 EE FF 03 01
 (1742566710.418418)  can0  182   [7]  00 00 A0 7C FF FF 00
 (1742566710.418667)  can0  282   [6]  00 00 00 00 04 01
 (1742566710.419665)  can0  181   [7]  94 FF E8 75 FF FF 00
 (1742566710.419853)  can0  281   [6]  25 00 EE FF 03 01
 (1742566710.423406)  can0  182   [7]  00 00 A0 7C FF FF 00
 (1742566710.423689)  can0  282   [6]  00 00 00 00 04 01
 (1742566710.424567)  can0  181   [7]  94 FF E8 75 FF FF 00
 (1742566710.424779)  can0  281   [6]  25 00 EE FF 03 01
 (1742566710.428395)  can0  182   [7]  00 00 A0 7C FF FF 00
 (1742566710.428687)  can0  282   [6]  00 00 00 00 04 01
 (1742566710.429569)  can0  181   [7]  94 FF E8 75 FF FF 00
 (1742566710.429751)  can0  281   [6]  25 00 EE FF 03 01
 (1742566710.433414)  can0  182   [7]  00 00 A0 7C FF FF 00
 (1742566710.433676)  can0  282   [6]  00 00 00 00 04 01
 (1742566710.434621)  can0  181   [7]  94 FF E8 75 FF FF 00
 (1742566710.434813)  can0  281   [6]  25 00 EE FF 03 01
 (1742566710.438413)  can0  182   [7]  00 00 A0 7C FF FF 00
 (1742566710.438701)  can0  282   [6]  00 00 00 00 04 01
 (1742566710.439634)  can0  181   [7]  94 FF E8 75 FF FF 00
 (1742566710.439819)  can0  281   [6]  25 00 EE FF 03 01
 (1742566710.443438)  can0  182   [7]  00 00 A0 7C FF FF 00
 (1742566710.443709)  can0  282   [6]  00 00 00 00 04 01
 (1742566710.444645)  can0  181   [7]  94 FF E8 75 FF FF 00
 (1742566710.444786)  can0  281   [6]  25 00 EE FF 03 01
 (1742566710.448429)  can0  182   [7]  00 00 A0 7C FF FF 00
 (1742566710.448662)  can0  282   [6]  00 00 00 00 04 01
 (1742566710.449567)  can0  181   [7]  95 FF E7 75 FF FF 00
 (1742566710.449775)  can0  281   [6]  25 00 01 00 03 01
 (1742566710.452031)  can0  601   [8]  2B 43 40 00 A9 FF 00 00
 (1742566710.452585)  can0  581   [8]  60 43 40 00 00 00 00 00
 (1742566710.453412)  can0  182   [7]  00 00 A0 7C FF FF 00
 (1742566710.453661)  can0  282   [6]  00 00 00 00 04 01
 (1742566710.454566)  can0  181   [7]  95 FF E7 75 FF FF 00
 (1742566710.454752)  can0  281   [6]  25 00 01 00 03 01
 (1742566710.458416)  can0  182   [7]  00 00 A0 7C FF FF 00
 (1742566710.458669)  can0  282   [6]  00 00 00 00 04 01
 (1742566710.459568)  can0  181   [7]  95 FF E7 75 FF FF 00
 (1742566710.459782)  can0  281   [6]  25 00 01 00 03 01
 (1742566710.462016)  can0  602   [8]  2B 43 40 00 20 00 00 00
 (1742566710.462421)  can0  582   [8]  60 43 40 00 00 00 00 00
 (1742566710.463423)  can0  182   [7]  00 00 A0 7C FF FF 00
 (1742566710.463695)  can0  282   [6]  00 00 00 00 04 01
 (1742566710.464579)  can0  181   [7]  95 FF E7 75 FF FF 00
 (1742566710.464787)  can0  281   [6]  25 00 02 00 03 01
 (1742566710.468424)  can0  182   [7]  00 00 A0 7C FF FF 00
 (1742566710.468667)  can0  282   [6]  00 00 00 00 04 01
 (1742566710.469573)  can0  181   [7]  95 FF E7 75 FF FF 00
 (1742566710.469800)  can0  281   [6]  25 00 EF FF 04 01
 (1742566710.473438)  can0  182   [7]  00 00 A0 7C FF FF 00
 (1742566710.473732)  can0  282   [6]  00 00 00 00 04 01
 (1742566710.474620)  can0  181   [7]  95 FF E7 75 FF FF 00
 (1742566710.474812)  can0  281   [6]  25 00 EF FF 04 01
 (1742566710.478418)  can0  182   [7]  00 00 A0 7C FF FF 00
 (1742566710.478665)  can0  282   [6]  00 00 00 00 04 01
 (1742566710.479567)  can0  181   [7]  95 FF E7 75 FF FF 00
 (1742566710.479783)  can0  281   [6]  25 00 EF FF 04 01
 (1742566710.483395)  can0  182   [7]  00 00 A0 7C FF FF 00
 (1742566710.483675)  can0  282   [6]  00 00 00 00 04 01
 (1742566710.484628)  can0  181   [7]  95 FF E7 75 FF FF 00
 (1742566710.484775)  can0  281   [6]  25 00 EF FF 04 01
 (1742566710.488458)  can0  182   [7]  00 00 A0 7C FF FF 00
 (1742566710.488725)  can0  282   [6]  00 00 00 00 04 01
 (1742566710.489643)  can0  181   [7]  95 FF E7 75 FF FF 00
 (1742566710.489838)  can0  281   [6]  25 00 EF FF 04 01
 (1742566710.493422)  can0  182   [7]  00 00 A0 7C FF FF 00
 (1742566710.493655)  can0  282   [6]  00 00 00 00 04 01
 (1742566710.494562)  can0  181   [7]  95 FF E7 75 FF FF 00
 (1742566710.494770)  can0  281   [6]  25 00 EF FF 04 01
 (1742566710.498422)  can0  182   [7]  00 00 A0 7C FF FF 00
 (1742566710.498585)  can0  282   [6]  00 00 00 00 04 01
 (1742566710.499566)  can0  181   [7]  95 FF E7 75 FF FF 00
 (1742566710.499779)  can0  281   [6]  25 00 EF FF 04 01
 (1742566710.503418)  can0  182   [7]  00 00 A0 7C FF FF 00
 (1742566710.503685)  can0  282   [6]  00 00 00 00 04 01
 (1742566710.504617)  can0  181   [7]  95 FF E7 75 FF FF 00
 (1742566710.504804)  can0  281   [6]  25 00 EF FF 04 01
 (1742566710.508417)  can0  182   [7]  00 00 A0 7C FF FF 00
 (1742566710.508700)  can0  282   [6]  00 00 00 00 04 01
 (1742566710.509634)  can0  181   [7]  95 FF E7 75 FF FF 00
 (1742566710.509809)  can0  281   [6]  25 00 EF FF 04 01
 (1742566710.513446)  can0  182   [7]  00 00 A0 7C FF FF 00
 (1742566710.513694)  can0  282   [6]  00 00 00 00 04 01
 (1742566710.514586)  can0  181   [7]  95 FF E7 75 FF FF 00
 (1742566710.514774)  can0  281   [6]  25 00 EF FF 04 01
 (1742566710.516955)  can0  601   [8]  2B 43 40 00 AD FF 00 00
 (1742566710.517578)  can0  581   [8]  60 43 40 00 00 00 00 00
 (1742566710.518324)  can0  182   [7]  00 00 A0 7C FF FF 00
 (1742566710.518576)  can0  282   [6]  00 00 00 00 04 01
 (1742566710.519552)  can0  181   [7]  96 FF E7 75 FF FF 00
 (1742566710.519773)  can0  281   [6]  25 00 EF FF 04 01
 (1742566710.523352)  can0  182   [7]  00 00 A0 7C FF FF 00
 (1742566710.523626)  can0  282   [6]  00 00 00 00 04 01
 (1742566710.524501)  can0  181   [7]  96 FF E7 75 FF FF 00
 (1742566710.524722)  can0  281   [6]  25 00 EF FF 04 01
 (1742566710.526955)  can0  602   [8]  2B 43 40 00 26 00 00 00
 (1742566710.527349)  can0  582   [8]  60 43 40 00 00 00 00 00
 (1742566710.528376)  can0  182   [7]  00 00 A0 7C FF FF 00
 (1742566710.528651)  can0  282   [6]  00 00 00 00 04 01
 (1742566710.529552)  can0  181   [7]  97 FF E7 75 FF FF 00
 (1742566710.529748)  can0  281   [6]  25 00 EF FF 04 01
 (1742566710.533352)  can0  182   [7]  00 00 A0 7C FF FF 00
 (1742566710.533626)  can0  282   [6]  00 00 00 00 04 01
 (1742566710.534552)  can0  181   [7]  97 FF E7 75 FF FF 00
 (1742566710.534748)  can0  281   [6]  25 00 EF FF 04 01
 (1742566710.538326)  can0  182   [7]  00 00 A0 7C FF FF 00
 (1742566710.538601)  can0  282   [6]  00 00 00 00 04 01
 (1742566710.539502)  can0  181   [7]  97 FF E7 75 FF FF 00
 (1742566710.539721)  can0  281   [6]  25 00 EF FF 04 01
 (1742566710.543381)  can0  182   [7]  00 00 A0 7C FF FF 00
 (1742566710.543651)  can0  282   [6]  00 00 00 00 04 01
 (1742566710.544502)  can0  181   [7]  97 FF E7 75 FF FF 00
 (1742566710.544721)  can0  281   [6]  25 00 EF FF 04 01
 (1742566710.548351)  can0  182   [7]  00 00 A0 7C FF FF 00
 (1742566710.548625)  can0  282   [6]  00 00 00 00 04 01
 (1742566710.549550)  can0  181   [7]  98 FF E6 75 FF FF 00
 (1742566710.549772)  can0  281   [6]  25 00 02 00 04 01
 (1742566710.553377)  can0  182   [7]  00 00 A0 7C FF FF 00
 (1742566710.553650)  can0  282   [6]  00 00 00 00 04 01
 (1742566710.554501)  can0  181   [7]  98 FF E6 75 FF FF 00
 (1742566710.554721)  can0  281   [6]  25 00 02 00 04 01
 (1742566710.558377)  can0  182   [7]  00 00 A0 7C FF FF 00
 (1742566710.558651)  can0  282   [6]  00 00 00 00 04 01
 (1742566710.559500)  can0  181   [7]  98 FF E6 75 FF FF 00
 (1742566710.559728)  can0  281   [6]  25 00 02 00 04 01
 (1742566710.563352)  can0  182   [7]  00 00 A0 7C FF FF 00
 (1742566710.563627)  can0  282   [6]  00 00 00 00 04 01
 (1742566710.564551)  can0  181   [7]  98 FF E6 75 FF FF 00
 (1742566710.564773)  can0  281   [6]  25 00 02 00 04 01
 (1742566710.568327)  can0  182   [7]  00 00 A0 7C FF FF 00
 (1742566710.568602)  can0  282   [6]  00 00 00 00 04 01
 (1742566710.569551)  can0  181   [7]  98 FF E6 75 FF FF 00
 (1742566710.569748)  can0  281   [6]  25 00 02 00 04 01
 (1742566710.573352)  can0  182   [7]  00 00 A0 7C FF FF 00
 (1742566710.573627)  can0  282   [6]  00 00 00 00 04 01
 (1742566710.574501)  can0  181   [7]  98 FF E6 75 FF FF 00
 (1742566710.574722)  can0  281   [6]  25 00 02 00 04 01
 (1742566710.578377)  can0  182   [7]  00 00 A0 7C FF FF 00
 (1742566710.578601)  can0  282   [6]  00 00 00 00 04 01
 (1742566710.579501)  can0  181   [7]  98 FF E6 75 FF FF 00
 (1742566710.579722)  can0  281   [6]  25 00 02 00 04 01
 (1742566710.581952)  can0  601   [8]  2B 43 40 00 AF FF 00 00
 (1742566710.582501)  can0  581   [8]  60 43 40 00 00 00 00 00
 (1742566710.583348)  can0  182   [7]  00 00 A0 7C FF FF 00
 (1742566710.583626)  can0  282   [6]  00 00 00 00 04 01
 (1742566710.584502)  can0  181   [7]  98 FF E6 75 FF FF 00
 (1742566710.584722)  can0  281   [6]  25 00 F6 FF 04 01
 (1742566710.588327)  can0  182   [7]  00 00 A0 7C FF FF 00
 (1742566710.588600)  can0  282   [6]  00 00 00 00 04 01
 (1742566710.589500)  can0  181   [7]  98 FF E6 75 FF FF 00
 (1742566710.589723)  can0  281   [6]  25 00 EF FF 04 01
 (1742566710.591927)  can0  602   [8]  2B 43 40 00 28 00 00 00
 (1742566710.592373)  can0  582   [8]  60 43 40 00 00 00 00 00
 (1742566710.593352)  can0  182   [7]  00 00 A0 7C FF FF 00
 (1742566710.593625)  can0  282   [6]  00 00 00 00 04 01
 (1742566710.594550)  can0  181   [7]  98 FF E6 75 FF FF 00
 (1742566710.594747)  can0  281   [6]  25 00 EF FF 04 01
 (1742566710.598348)  can0  182   [7]  00 00 A0 7C FF FF 00
 (1742566710.598600)  can0  282   [6]  00 00 00 00 04 01
 (1742566710.599552)  can0  181   [7]  98 FF E6 75 FF FF 00
 (1742566710.599773)  can0  281   [6]  25 00 EF FF 04 01
 (1742566710.603352)  can0  182   [7]  00 00 A0 7C FF FF 00
 (1742566710.603626)  can0  282   [6]  00 00 00 00 04 01
 (1742566710.604501)  can0  181   [7]  98 FF E6 75 FF FF 00
 (1742566710.604722)  can0  281   [6]  25 00 EF FF 04 01
 (1742566710.608352)  can0  182   [7]  00 00 A0 7C FF FF 00
 (1742566710.608626)  can0  282   [6]  00 00 00 00 04 01
 (1742566710.609500)  can0  181   [7]  98 FF E6 75 FF FF 00
 (1742566710.609722)  can0  281   [6]  25 00 EF FF 04 01
 (1742566710.613378)  can0  182   [7]  00 00 A0 7C FF FF 00
 (1742566710.613651)  can0  282   [6]  00 00 00 00 04 01
 (1742566710.614500)  can0  181   [7]  98 FF E6 75 FF FF 00
 (1742566710.614722)  can0  281   [6]  25 00 EF FF 04 01
 (1742566710.618352)  can0  182   [7]  00 00 A0 7C FF FF 00
 (1742566710.618626)  can0  282   [6]  00 00 00 00 04 01
 (1742566710.619501)  can0  181   [7]  98 FF E6 75 FF FF 00
 (1742566710.619722)  can0  281   [6]  25 00 EF FF 04 01
 (1742566710.623327)  can0  182   [7]  00 00 A0 7C FF FF 00
 (1742566710.623601)  can0  282   [6]  00 00 00 00 04 01
 (1742566710.624551)  can0  181   [7]  98 FF E6 75 FF FF 00
 (1742566710.624773)  can0  281   [6]  25 00 EF FF 04 01
 (1742566710.628377)  can0  182   [7]  00 00 A0 7C FF FF 00
 (1742566710.628651)  can0  282   [6]  00 00 00 00 04 01
 (1742566710.629552)  can0  181   [7]  98 FF E6 75 FF FF 00
 (1742566710.629748)  can0  281   [6]  25 00 EF FF 04 01
 (1742566710.633352)  can0  182   [7]  00 00 A0 7C FF FF 00
 (1742566710.633626)  can0  282   [6]  00 00 00 00 04 01
 (1742566710.634551)  can0  181   [7]  98 FF E6 75 FF FF 00
 (1742566710.634773)  can0  281   [6]  25 00 EF FF 04 01
 (1742566710.638327)  can0  182   [7]  00 00 A0 7C FF FF 00
 (1742566710.638601)  can0  282   [6]  00 00 00 00 04 01
 (1742566710.639501)  can0  181   [7]  98 FF E6 75 FF FF 00
 (1742566710.639722)  can0  281   [6]  25 00 EF FF 04 01
 (1742566710.643352)  can0  182   [7]  00 00 A0 7C FF FF 00
 (1742566710.643627)  can0  282   [6]  00 00 00 00 04 01
 (1742566710.644551)  can0  181   [7]  98 FF E6 75 FF FF 00
 (1742566710.644773)  can0  281   [6]  25 00 EF FF 04 01
 (1742566710.646947)  can0  601   [8]  2B 43 40 00 AF FF 00 00
 (1742566710.647506)  can0  581   [8]  60 43 40 00 00 00 00 00
 (1742566710.648374)  can0  182   [7]  00 00 A0 7C FF FF 00
 (1742566710.648651)  can0  282   [6]  00 00 00 00 04 01
 (1742566710.649500)  can0  181   [7]  98 FF E6 75 FF FF 00
 (1742566710.649721)  can0  281   [6]  25 00 EF FF 04 01
 (1742566710.653327)  can0  182   [7]  00 00 A0 7C FF FF 00
 (1742566710.653600)  can0  282   [6]  00 00 00 00 04 01
 (1742566710.654500)  can0  181   [7]  98 FF E6 75 FF FF 00
 (1742566710.654721)  can0  281   [6]  25 00 EF FF 04 01
 (1742566710.656976)  can0  602   [8]  2B 43 40 00 28 00 00 00
 (1742566710.657322)  can0  582   [8]  60 43 40 00 00 00 00 00
 (1742566710.658377)  can0  182   [7]  00 00 A0 7C FF FF 00
 (1742566710.658650)  can0  282   [6]  00 00 00 00 04 01
 (1742566710.659552)  can0  181   [7]  98 FF E6 75 FF FF 00
 (1742566710.659748)  can0  281   [6]  25 00 EF FF 04 01
 (1742566710.663327)  can0  182   [7]  00 00 A0 7C FF FF 00
 (1742566710.663600)  can0  282   [6]  00 00 00 00 04 01
 (1742566710.664551)  can0  181   [7]  98 FF E6 75 FF FF 00
 (1742566710.664773)  can0  281   [6]  25 00 EF FF 04 01
 (1742566710.668302)  can0  182   [7]  00 00 A0 7C FF FF 00
 (1742566710.668575)  can0  282   [6]  0A 00 14 00 04 01
 (1742566710.669551)  can0  181   [7]  98 FF E6 75 FF FF 00
 (1742566710.669749)  can0  281   [6]  25 00 EF FF 04 01
 (1742566710.673351)  can0  182   [7]  00 00 A0 7C FF FF 00
 (1742566710.673626)  can0  282   [6]  21 00 14 00 04 01
 (1742566710.674551)  can0  181   [7]  98 FF E6 75 FF FF 00
 (1742566710.674748)  can0  281   [6]  25 00 EF FF 04 01
 (1742566710.678352)  can0  182   [7]  00 00 A0 7C FF FF 00
 (1742566710.678626)  can0  282   [6]  14 00 14 00 04 01
 (1742566710.679551)  can0  181   [7]  98 FF E6 75 FF FF 00
 (1742566710.679753)  can0  281   [6]  25 00 EF FF 04 01
 (1742566710.683326)  can0  182   [7]  00 00 A0 7C FF FF 00
 (1742566710.683601)  can0  282   [6]  0C 00 14 00 04 01
 (1742566710.684551)  can0  181   [7]  98 FF E6 75 FF FF 00
 (1742566710.684773)  can0  281   [6]  25 00 EF FF 04 01
 (1742566710.688327)  can0  182   [7]  00 00 A0 7C FF FF 00
 (1742566710.688601)  can0  282   [6]  14 00 15 00 04 01
 (1742566710.689551)  can0  181   [7]  98 FF E6 75 FF FF 00
 (1742566710.689748)  can0  281   [6]  25 00 EF FF 04 01
 (1742566710.693302)  can0  182   [7]  00 00 A0 7C FF FF 00
 (1742566710.693576)  can0  282   [6]  1F 00 15 00 04 01
 (1742566710.694551)  can0  181   [7]  98 FF E6 75 FF FF 00
 (1742566710.694748)  can0  281   [6]  25 00 EF FF 04 01
 (1742566710.698373)  can0  182   [7]  00 00 A0 7C FF FF 00
 (1742566710.698651)  can0  282   [6]  2D 00 15 00 04 01
 (1742566710.699551)  can0  181   [7]  98 FF E6 75 FF FF 00
 (1742566710.699748)  can0  281   [6]  25 00 EF FF 04 01
 (1742566710.703352)  can0  182   [7]  00 00 A0 7C FF FF 00
 (1742566710.703626)  can0  282   [6]  34 00 15 00 04 01
 (1742566710.704551)  can0  181   [7]  98 FF E6 75 FF FF 00
 (1742566710.704748)  can0  281   [6]  25 00 EF FF 04 01
 (1742566710.708351)  can0  182   [7]  00 00 A0 7C FF FF 00
 (1742566710.708626)  can0  282   [6]  27 00 15 00 04 01
 (1742566710.709500)  can0  181   [7]  9B FF E5 75 FF FF 00
 (1742566710.709722)  can0  281   [6]  1F 00 EF FF 04 01
 (1742566710.711951)  can0  601   [8]  2B 43 40 00 AF FF 00 00
 (1742566710.712500)  can0  581   [8]  60 43 40 00 00 00 00 00
 (1742566710.713372)  can0  182   [7]  00 00 A0 7C FF FF 00
 (1742566710.713600)  can0  282   [6]  1D 00 15 00 04 01
 (1742566710.714500)  can0  181   [7]  9B FF E5 75 FF FF 00
 (1742566710.714721)  can0  281   [6]  1F 00 EF FF 04 01
 (1742566710.718351)  can0  182   [7]  00 00 A0 7C FF FF 00
 (1742566710.718625)  can0  282   [6]  18 00 15 00 04 01
 (1742566710.719500)  can0  181   [7]  9B FF E5 75 FF FF 00
 (1742566710.719721)  can0  281   [6]  1F 00 EF FF 04 01
 (1742566710.721926)  can0  602   [8]  2B 43 40 00 28 00 00 00
 (1742566710.722348)  can0  582   [8]  60 43 40 00 00 00 00 00
 (1742566710.723326)  can0  182   [7]  00 00 A0 7C FF FF 00
 (1742566710.723601)  can0  282   [6]  16 00 15 00 04 01
 (1742566710.724551)  can0  181   [7]  9B FF E5 75 FF FF 00
 (1742566710.724772)  can0  281   [6]  1F 00 EF FF 04 01
 (1742566710.728330)  can0  182   [7]  00 00 A0 7C FF FF 00
 (1742566710.728600)  can0  282   [6]  16 00 15 00 04 01
 (1742566710.729551)  can0  181   [7]  9B FF E5 75 FF FF 00
 (1742566710.729773)  can0  281   [6]  1F 00 EF FF 04 01
 (1742566710.733377)  can0  182   [7]  00 00 A1 7C FF FF 00
 (1742566710.733652)  can0  282   [6]  14 00 01 00 04 01
 (1742566710.734500)  can0  181   [7]  9B FF E5 75 FF FF 00
 (1742566710.734721)  can0  281   [6]  1F 00 EF FF 04 01
 (1742566710.738301)  can0  182   [7]  00 00 A1 7C FF FF 00
 (1742566710.738575)  can0  282   [6]  18 00 01 00 04 01
 (1742566710.739500)  can0  181   [7]  9B FF E5 75 FF FF 00
 (1742566710.739721)  can0  281   [6]  1F 00 EF FF 04 01
 (1742566710.743351)  can0  182   [7]  00 00 A1 7C FF FF 00
 (1742566710.743627)  can0  282   [6]  1D 00 01 00 04 01
 (1742566710.744500)  can0  181   [7]  9B FF E5 75 FF FF 00
 (1742566710.744721)  can0  281   [6]  1F 00 EF FF 04 01
 (1742566710.748376)  can0  182   [7]  00 00 A1 7C FF FF 00
 (1742566710.748651)  can0  282   [6]  0C 00 01 00 04 01
 (1742566710.749500)  can0  181   [7]  9B FF E5 75 FF FF 00
 (1742566710.749721)  can0  281   [6]  1F 00 EF FF 04 01
 (1742566710.753351)  can0  182   [7]  00 00 A1 7C FF FF 00
 (1742566710.753627)  can0  282   [6]  06 00 01 00 04 01
 (1742566710.754551)  can0  181   [7]  9B FF E5 75 FF FF 00
 (1742566710.754772)  can0  281   [6]  1F 00 EF FF 04 01
 (1742566710.758351)  can0  182   [7]  00 00 A1 7C FF FF 00
 (1742566710.758625)  can0  282   [6]  06 00 01 00 04 01
 (1742566710.759576)  can0  181   [7]  9B FF E5 75 FF FF 00
 (1742566710.759772)  can0  281   [6]  1F 00 EF FF 04 01
 (1742566710.763351)  can0  182   [7]  00 00 A1 7C FF FF 00
 (1742566710.763625)  can0  282   [6]  08 00 01 00 04 01
 (1742566710.764501)  can0  181   [7]  9B FF E5 75 FF FF 00
 (1742566710.764721)  can0  281   [6]  1F 00 EF FF 04 01
 (1742566710.768351)  can0  182   [7]  00 00 A1 7C FF FF 00
 (1742566710.768626)  can0  282   [6]  0A 00 01 00 04 01
 (1742566710.769501)  can0  181   [7]  9B FF E5 75 FF FF 00
 (1742566710.769722)  can0  281   [6]  1F 00 EF FF 04 01
 (1742566710.773351)  can0  182   [7]  00 00 A1 7C FF FF 00
 (1742566710.773625)  can0  282   [6]  08 00 01 00 04 01
 (1742566710.774500)  can0  181   [7]  9B FF E5 75 FF FF 00
 (1742566710.774721)  can0  281   [6]  1F 00 EF FF 04 01
 (1742566710.776951)  can0  601   [8]  2B 43 40 00 AF FF 00 00
 (1742566710.777551)  can0  581   [8]  60 43 40 00 00 00 00 00
 (1742566710.778348)  can0  182   [7]  00 00 A1 7C FF FF 00
 (1742566710.778600)  can0  282   [6]  06 00 01 00 04 01
 (1742566710.779501)  can0  181   [7]  9B FF E5 75 FF FF 00
 (1742566710.779722)  can0  281   [6]  1F 00 EF FF 04 01
 (1742566710.783351)  can0  182   [7]  00 00 A1 7C FF FF 00
 (1742566710.783625)  can0  282   [6]  04 00 01 00 04 01
 (1742566710.784551)  can0  181   [7]  9B FF E5 75 FF FF 00
 (1742566710.784747)  can0  281   [6]  1F 00 EF FF 04 01
 (1742566710.786926)  can0  602   [8]  2B 43 40 00 28 00 00 00
 (1742566710.787373)  can0  582   [8]  60 43 40 00 00 00 00 00
 (1742566710.788351)  can0  182   [7]  00 00 A1 7C FF FF 00
 (1742566710.788625)  can0  282   [6]  00 00 01 00 04 01
 (1742566710.789500)  can0  181   [7]  9B FF E5 75 FF FF 00
 (1742566710.789721)  can0  281   [6]  1F 00 EF FF 04 01
 (1742566710.793326)  can0  182   [7]  00 00 A1 7C FF FF 00
 (1742566710.793600)  can0  282   [6]  00 00 01 00 04 01
 (1742566710.794500)  can0  181   [7]  9B FF E5 75 FF FF 00
 (1742566710.794721)  can0  281   [6]  1F 00 EF FF 04 01
 (1742566710.798348)  can0  182   [7]  00 00 A1 7C FF FF 00
 (1742566710.798600)  can0  282   [6]  00 00 01 00 04 01
 (1742566710.799501)  can0  181   [7]  9D FF E4 75 FF FF 00
 (1742566710.799721)  can0  281   [6]  1F 00 01 00 04 01
 (1742566710.803352)  can0  182   [7]  00 00 A1 7C FF FF 00
 (1742566710.803625)  can0  282   [6]  00 00 01 00 04 01
 (1742566710.804551)  can0  181   [7]  9D FF E4 75 FF FF 00
 (1742566710.804747)  can0  281   [6]  1F 00 02 00 04 01
 (1742566710.808350)  can0  182   [7]  00 00 A1 7C FF FF 00
 (1742566710.808624)  can0  282   [6]  00 00 01 00 04 01
 (1742566710.809550)  can0  181   [7]  9D FF E4 75 FF FF 00
 (1742566710.809746)  can0  281   [6]  1F 00 02 00 04 01
 (1742566710.813327)  can0  182   [7]  00 00 A1 7C FF FF 00
 (1742566710.813600)  can0  282   [6]  00 00 01 00 04 01
 (1742566710.814499)  can0  181   [7]  9D FF E4 75 FF FF 00
 (1742566710.814721)  can0  281   [6]  1F 00 02 00 04 01
 (1742566710.818327)  can0  182   [7]  00 00 A1 7C FF FF 00
 (1742566710.818600)  can0  282   [6]  00 00 01 00 04 01
 (1742566710.819500)  can0  181   [7]  9D FF E4 75 FF FF 00
 (1742566710.819721)  can0  281   [6]  1F 00 02 00 04 01
 (1742566710.823350)  can0  182   [7]  00 00 A1 7C FF FF 00
 (1742566710.823625)  can0  282   [6]  00 00 01 00 04 01
 (1742566710.824500)  can0  181   [7]  9D FF E4 75 FF FF 00
 (1742566710.824721)  can0  281   [6]  1F 00 02 00 04 01
 (1742566710.828328)  can0  182   [7]  00 00 A1 7C FF FF 00
 (1742566710.828602)  can0  282   [6]  00 00 01 00 04 01
 (1742566710.829503)  can0  181   [7]  9D FF E4 75 FF FF 00
 (1742566710.829722)  can0  281   [6]  1F 00 F8 FF 04 01
 (1742566710.833350)  can0  182   [7]  00 00 A1 7C FF FF 00
 (1742566710.833625)  can0  282   [6]  00 00 01 00 04 01
 (1742566710.834500)  can0  181   [7]  9D FF E4 75 FF FF 00
 (1742566710.834721)  can0  281   [6]  1F 00 EF FF 04 01
 (1742566710.838350)  can0  182   [7]  00 00 A1 7C FF FF 00
 (1742566710.838625)  can0  282   [6]  00 00 01 00 04 01
 (1742566710.839501)  can0  181   [7]  9D FF E4 75 FF FF 00
 (1742566710.839721)  can0  281   [6]  1F 00 EF FF 04 01
 (1742566710.841951)  can0  601   [8]  2B 43 40 00 AF FF 00 00
 (1742566710.842551)  can0  581   [8]  60 43 40 00 00 00 00 00
 (1742566710.843323)  can0  182   [7]  00 00 A1 7C FF FF 00
 (1742566710.843600)  can0  282   [6]  00 00 01 00 04 01
 (1742566710.844500)  can0  181   [7]  9D FF E4 75 FF FF 00
 (1742566710.844723)  can0  281   [6]  1F 00 EF FF 04 01
 (1742566710.848301)  can0  182   [7]  00 00 A1 7C FF FF 00
 (1742566710.848575)  can0  282   [6]  00 00 01 00 04 01
 (1742566710.849500)  can0  181   [7]  9D FF E4 75 FF FF 00
 (1742566710.849721)  can0  281   [6]  1F 00 EF FF 04 01
 (1742566710.851926)  can0  602   [8]  2B 43 40 00 28 00 00 00
 (1742566710.852348)  can0  582   [8]  60 43 40 00 00 00 00 00
 (1742566710.853326)  can0  182   [7]  00 00 A1 7C FF FF 00
 (1742566710.853600)  can0  282   [6]  00 00 01 00 04 01
 (1742566710.854500)  can0  181   [7]  9D FF E4 75 FF FF 00
 (1742566710.854721)  can0  281   [6]  1F 00 EF FF 04 01
 (1742566710.858376)  can0  182   [7]  00 00 A1 7C FF FF 00
 (1742566710.858650)  can0  282   [6]  00 00 01 00 04 01
 (1742566710.859500)  can0  181   [7]  9D FF E4 75 FF FF 00
 (1742566710.859721)  can0  281   [6]  1F 00 EF FF 04 01
 (1742566710.863326)  can0  182   [7]  00 00 A1 7C FF FF 00
 (1742566710.863600)  can0  282   [6]  00 00 01 00 04 01
 (1742566710.864500)  can0  181   [7]  9D FF E4 75 FF FF 00
 (1742566710.864721)  can0  281   [6]  1F 00 EF FF 04 01
 (1742566710.868326)  can0  182   [7]  00 00 A1 7C FF FF 00
 (1742566710.868600)  can0  282   [6]  00 00 01 00 04 01
 (1742566710.869500)  can0  181   [7]  9D FF E4 75 FF FF 00
 (1742566710.869721)  can0  281   [6]  1F 00 EF FF 04 01
 (1742566710.873350)  can0  182   [7]  00 00 A1 7C FF FF 00
 (1742566710.873625)  can0  282   [6]  00 00 01 00 04 01
 (1742566710.874551)  can0  181   [7]  9D FF E4 75 FF FF 00
 (1742566710.874772)  can0  281   [6]  1F 00 EF FF 04 01
 (1742566710.878325)  can0  182   [7]  00 00 A1 7C FF FF 00
 (1742566710.878600)  can0  282   [6]  00 00 01 00 04 01
 (1742566710.879551)  can0  181   [7]  9D FF E4 75 FF FF 00
 (1742566710.879747)  can0  281   [6]  1F 00 EF FF 04 01
 (1742566710.883351)  can0  182   [7]  00 00 A1 7C FF FF 00
 (1742566710.883625)  can0  282   [6]  00 00 01 00 04 01
 (1742566710.884500)  can0  181   [7]  9D FF E4 75 FF FF 00
 (1742566710.884721)  can0  281   [6]  1F 00 EF FF 04 01
 (1742566710.888326)  can0  182   [7]  00 00 A1 7C FF FF 00
 (1742566710.888600)  can0  282   [6]  00 00 01 00 04 01
 (1742566710.889550)  can0  181   [7]  9D FF E4 75 FF FF 00
 (1742566710.889747)  can0  281   [6]  1F 00 EF FF 04 01
 (1742566710.893351)  can0  182   [7]  00 00 A1 7C FF FF 00
 (1742566710.893625)  can0  282   [6]  00 00 01 00 04 01
 (1742566710.894550)  can0  181   [7]  9D FF E4 75 FF FF 00
 (1742566710.894772)  can0  281   [6]  1F 00 EF FF 04 01
 (1742566710.898349)  can0  182   [7]  00 00 A1 7C FF FF 00
 (1742566710.898625)  can0  282   [6]  00 00 01 00 04 01
 (1742566710.899551)  can0  181   [7]  9D FF E4 75 FF FF 00
 (1742566710.899747)  can0  281   [6]  1F 00 EF FF 04 01
 (1742566710.903325)  can0  182   [7]  00 00 A1 7C FF FF 00
 (1742566710.903600)  can0  282   [6]  00 00 01 00 04 01
 (1742566710.904499)  can0  181   [7]  9D FF E4 75 FF FF 00
 (1742566710.904721)  can0  281   [6]  1F 00 EF FF 04 01
 (1742566710.906975)  can0  601   [8]  2B 43 40 00 AF FF 00 00
 (1742566710.907551)  can0  581   [8]  60 43 40 00 00 00 00 00
 (1742566710.908322)  can0  182   [7]  00 00 A1 7C FF FF 00
 (1742566710.908575)  can0  282   [6]  00 00 01 00 04 01
 (1742566710.909500)  can0  181   [7]  9D FF E4 75 FF FF 00
 (1742566710.909721)  can0  281   [6]  1F 00 EF FF 04 01
 (1742566710.913350)  can0  182   [7]  00 00 A1 7C FF FF 00
 (1742566710.913625)  can0  282   [6]  00 00 01 00 04 01
 (1742566710.914500)  can0  181   [7]  9F FF E3 75 FF FF 00
 (1742566710.914721)  can0  281   [6]  1F 00 02 00 04 01
 (1742566710.916925)  can0  602   [8]  2B 43 40 00 28 00 00 00
 (1742566710.917347)  can0  582   [8]  60 43 40 00 00 00 00 00
 (1742566710.918325)  can0  182   [7]  00 00 A1 7C FF FF 00
 (1742566710.918600)  can0  282   [6]  0C 00 15 00 04 01
 (1742566710.919500)  can0  181   [7]  9F FF E3 75 FF FF 00
 (1742566710.919721)  can0  281   [6]  1F 00 02 00 04 01
 (1742566710.923375)  can0  182   [7]  00 00 A1 7C FF FF 00
 (1742566710.923600)  can0  282   [6]  25 00 15 00 04 01
 (1742566710.924551)  can0  181   [7]  9F FF E3 75 FF FF 00
 (1742566710.924747)  can0  281   [6]  1F 00 02 00 04 01
 (1742566710.928300)  can0  182   [7]  00 00 A1 7C FF FF 00
 (1742566710.928575)  can0  282   [6]  18 00 15 00 04 01
 (1742566710.929500)  can0  181   [7]  9F FF E3 75 FF FF 00
 (1742566710.929721)  can0  281   [6]  1F 00 02 00 04 01
 (1742566710.933352)  can0  182   [7]  00 00 A1 7C FF FF 00
 (1742566710.933625)  can0  282   [6]  16 00 15 00 04 01
 (1742566710.934500)  can0  181   [7]  9F FF E3 75 FF FF 00
 (1742566710.934721)  can0  281   [6]  1F 00 02 00 04 01
 (1742566710.938351)  can0  182   [7]  00 00 A1 7C FF FF 00
 (1742566710.938625)  can0  282   [6]  1F 00 15 00 04 01
 (1742566710.939499)  can0  181   [7]  9F FF E3 75 FF FF 00
 (1742566710.939721)  can0  281   [6]  1F 00 02 00 04 01
 (1742566710.943326)  can0  182   [7]  00 00 A1 7C FF FF 00
 (1742566710.943600)  can0  282   [6]  23 00 15 00 04 01
 (1742566710.944551)  can0  181   [7]  9F FF E3 75 FF FF 00
 (1742566710.944747)  can0  281   [6]  1F 00 03 00 04 01
 (1742566710.948326)  can0  182   [7]  00 00 A1 7C FF FF 00
 (1742566710.948600)  can0  282   [6]  2B 00 15 00 04 01
 (1742566710.949551)  can0  181   [7]  9F FF E3 75 FF FF 00
 (1742566710.949747)  can0  281   [6]  1F 00 03 00 04 01
 (1742566710.953300)  can0  182   [7]  00 00 A1 7C FF FF 00
 (1742566710.953575)  can0  282   [6]  34 00 15 00 04 01
 (1742566710.954500)  can0  181   [7]  9F FF E3 75 FF FF 00
 (1742566710.954721)  can0  281   [6]  1F 00 FB FF 04 01
 (1742566710.958326)  can0  182   [7]  00 00 A1 7C FF FF 00
 (1742566710.958600)  can0  282   [6]  29 00 15 00 04 01
 (1742566710.959550)  can0  181   [7]  9F FF E3 75 FF FF 00
 (1742566710.959747)  can0  281   [6]  1F 00 F0 FF 04 01
 (1742566710.963351)  can0  182   [7]  00 00 A1 7C FF FF 00
 (1742566710.963625)  can0  282   [6]  1D 00 15 00 04 01
 (1742566710.964499)  can0  181   [7]  9F FF E3 75 FF FF 00
 (1742566710.964721)  can0  281   [6]  1F 00 F0 FF 03 01
 (1742566710.968351)  can0  182   [7]  00 00 A1 7C FF FF 00
 (1742566710.968625)  can0  282   [6]  18 00 16 00 04 01
 (1742566710.969499)  can0  181   [7]  9F FF E3 75 FF FF 00
 (1742566710.969721)  can0  281   [6]  1F 00 F0 FF 03 01
 (1742566710.971951)  can0  601   [8]  2B 43 40 00 AF FF 00 00
 (1742566710.972552)  can0  581   [8]  60 43 40 00 00 00 00 00
 (1742566710.973347)  can0  182   [7]  00 00 A1 7C FF FF 00
 (1742566710.973599)  can0  282   [6]  18 00 16 00 04 01
 (1742566710.974500)  can0  181   [7]  9F FF E3 75 FF FF 00
 (1742566710.974728)  can0  281   [6]  1F 00 F0 FF 03 01
 (1742566710.978326)  can0  182   [7]  00 00 A2 7C FF FF 00
 (1742566710.978600)  can0  282   [6]  16 00 02 00 04 01
 (1742566710.979500)  can0  181   [7]  9F FF E3 75 FF FF 00
 (1742566710.979721)  can0  281   [6]  1F 00 F0 FF 03 01
 (1742566710.981925)  can0  602   [8]  2B 43 40 00 29 00 00 00
 (1742566710.982323)  can0  582   [8]  60 43 40 00 00 00 00 00
 (1742566710.983350)  can0  182   [7]  00 00 A2 7C FF FF 00
 (1742566710.983625)  can0  282   [6]  18 00 02 00 04 01
 (1742566710.984500)  can0  181   [7]  9F FF E3 75 FF FF 00
 (1742566710.984721)  can0  281   [6]  1F 00 F0 FF 03 01
 (1742566710.988351)  can0  182   [7]  00 00 A2 7C FF FF 00
 (1742566710.988625)  can0  282   [6]  18 00 02 00 04 01
 (1742566710.989500)  can0  181   [7]  9F FF E3 75 FF FF 00
 (1742566710.989721)  can0  281   [6]  1F 00 F0 FF 03 01
 (1742566710.993326)  can0  182   [7]  00 00 A2 7C FF FF 00
 (1742566710.993600)  can0  282   [6]  08 00 02 00 04 01
 (1742566710.994500)  can0  181   [7]  9F FF E3 75 FF FF 00
 (1742566710.994721)  can0  281   [6]  1F 00 F0 FF 03 01
 (1742566710.998372)  can0  182   [7]  00 00 A2 7C FF FF 00
 (1742566710.998599)  can0  282   [6]  00 00 02 00 04 01
 (1742566710.999500)  can0  181   [7]  9F FF E3 75 FF FF 00
 (1742566710.999721)  can0  281   [6]  1F 00 F0 FF 03 01
 (1742566711.003325)  can0  182   [7]  00 00 A2 7C FF FF 00
 (1742566711.003600)  can0  282   [6]  00 00 02 00 04 01
 (1742566711.004499)  can0  181   [7]  9F FF E3 75 FF FF 00
 (1742566711.004721)  can0  281   [6]  1F 00 F0 FF 03 01
 (1742566711.008326)  can0  182   [7]  00 00 A2 7C FF FF 00
 (1742566711.008600)  can0  282   [6]  00 00 02 00 04 01
 (1742566711.009499)  can0  181   [7]  9F FF E3 75 FF FF 00
 (1742566711.009721)  can0  281   [6]  1F 00 F0 FF 03 01
 (1742566711.013351)  can0  182   [7]  00 00 A2 7C FF FF 00
 (1742566711.013625)  can0  282   [6]  00 00 02 00 04 01
 (1742566711.014499)  can0  181   [7]  9F FF E3 75 FF FF 00
 (1742566711.014721)  can0  281   [6]  1F 00 F0 FF 03 01
 (1742566711.018351)  can0  182   [7]  00 00 A2 7C FF FF 00
 (1742566711.018624)  can0  282   [6]  00 00 02 00 04 01
 (1742566711.019500)  can0  181   [7]  9F FF E3 75 FF FF 00
 (1742566711.019728)  can0  281   [6]  1F 00 F0 FF 03 01
 (1742566711.023331)  can0  182   [7]  00 00 A2 7C FF FF 00
 (1742566711.023599)  can0  282   [6]  00 00 02 00 04 01
 (1742566711.024499)  can0  181   [7]  9F FF E3 75 FF FF 00
 (1742566711.024721)  can0  281   [6]  1F 00 F0 FF 03 01
 (1742566711.028325)  can0  182   [7]  00 00 A2 7C FF FF 00
 (1742566711.028599)  can0  282   [6]  00 00 02 00 04 01
 (1742566711.029499)  can0  181   [7]  9F FF E3 75 FF FF 00
 (1742566711.029721)  can0  281   [6]  1F 00 F0 FF 03 01
 (1742566711.033375)  can0  182   [7]  00 00 A2 7C FF FF 00
 (1742566711.033650)  can0  282   [6]  00 00 02 00 04 01
 (1742566711.034499)  can0  181   [7]  9F FF E3 75 FF FF 00
 (1742566711.034721)  can0  281   [6]  1F 00 F0 FF 03 01
 (1742566711.036950)  can0  601   [8]  2B 43 40 00 AF FF 00 00
 (1742566711.037499)  can0  581   [8]  60 43 40 00 00 00 00 00
 (1742566711.038321)  can0  182   [7]  00 00 A2 7C FF FF 00
 (1742566711.038600)  can0  282   [6]  00 00 02 00 04 01
 (1742566711.039550)  can0  181   [7]  9F FF E3 75 FF FF 00
 (1742566711.039747)  can0  281   [6]  1F 00 F0 FF 03 01
 (1742566711.043350)  can0  182   [7]  00 00 A2 7C FF FF 00
 (1742566711.043625)  can0  282   [6]  00 00 02 00 04 01
 (1742566711.044499)  can0  181   [7]  9F FF E3 75 FF FF 00
 (1742566711.044721)  can0  281   [6]  1F 00 F0 FF 03 01
 (1742566711.046926)  can0  602   [8]  2B 43 40 00 28 00 00 00
 (1742566711.047298)  can0  582   [8]  60 43 40 00 00 00 00 00
 (1742566711.048350)  can0  182   [7]  00 00 A2 7C FF FF 00
 (1742566711.048625)  can0  282   [6]  00 00 02 00 04 01
 (1742566711.049500)  can0  181   [7]  9F FF E3 75 FF FF 00
 (1742566711.049720)  can0  281   [6]  1F 00 F0 FF 03 01
 (1742566711.053301)  can0  182   [7]  00 00 A2 7C FF FF 00
 (1742566711.053582)  can0  282   [6]  00 00 02 00 04 01
 (1742566711.054500)  can0  181   [7]  9F FF E3 75 FF FF 00
 (1742566711.054720)  can0  281   [6]  1F 00 F0 FF 03 01
 (1742566711.058301)  can0  182   [7]  00 00 A2 7C FF FF 00
 (1742566711.058575)  can0  282   [6]  00 00 02 00 04 01
 (1742566711.059500)  can0  181   [7]  9F FF E3 75 FF FF 00
 (1742566711.059720)  can0  281   [6]  1F 00 F0 FF 03 01
 (1742566711.063326)  can0  182   [7]  00 00 A2 7C FF FF 00
 (1742566711.063600)  can0  282   [6]  00 00 02 00 04 01
 (1742566711.064500)  can0  181   [7]  9F FF E3 75 FF FF 00
 (1742566711.064721)  can0  281   [6]  1F 00 F0 FF 03 01
 (1742566711.068326)  can0  182   [7]  00 00 A2 7C FF FF 00
 (1742566711.068600)  can0  282   [6]  00 00 02 00 04 01
 (1742566711.069500)  can0  181   [7]  9F FF E3 75 FF FF 00
 (1742566711.069721)  can0  281   [6]  1F 00 F0 FF 03 01
 (1742566711.073350)  can0  182   [7]  00 00 A2 7C FF FF 00
 (1742566711.073625)  can0  282   [6]  00 00 02 00 04 01
 (1742566711.074500)  can0  181   [7]  9F FF E3 75 FF FF 00
 (1742566711.074721)  can0  281   [6]  1F 00 F0 FF 03 01
 (1742566711.078325)  can0  182   [7]  00 00 A2 7C FF FF 00
 (1742566711.078600)  can0  282   [6]  00 00 02 00 04 01
 (1742566711.079500)  can0  181   [7]  00 00 E3 75 FF FF 00
 (1742566711.079720)  can0  281   [6]  48 00 DC FF 03 01
 (1742566711.083351)  can0  182   [7]  00 00 A2 7C FF FF 00
 (1742566711.083624)  can0  282   [6]  00 00 02 00 04 01
 (1742566711.084500)  can0  181   [7]  00 00 E3 75 FF FF 00
 (1742566711.084720)  can0  281   [6]  7A 00 DB FF 03 01
 (1742566711.088351)  can0  182   [7]  00 00 A2 7C FF FF 00
 (1742566711.088625)  can0  282   [6]  00 00 02 00 04 01
 (1742566711.089500)  can0  181   [7]  00 00 E3 75 FF FF 00
 (1742566711.089721)  can0  281   [6]  74 00 DB FF 04 01
 (1742566711.093300)  can0  182   [7]  00 00 A2 7C FF FF 00
 (1742566711.093574)  can0  282   [6]  00 00 02 00 04 01
 (1742566711.094499)  can0  181   [7]  00 00 E2 75 FF FF 00
 (1742566711.094721)  can0  281   [6]  44 00 EF FF 04 01
 (1742566711.098372)  can0  182   [7]  00 00 A2 7C FF FF 00
 (1742566711.098625)  can0  282   [6]  00 00 02 00 04 01
 (1742566711.099500)  can0  181   [7]  00 00 E2 75 FF FF 00
 (1742566711.099720)  can0  281   [6]  10 00 EF FF 03 01
 (1742566711.101951)  can0  601   [8]  2B 43 40 00 AF FF 00 00
 (1742566711.102500)  can0  581   [8]  60 43 40 00 00 00 00 00
 (1742566711.103347)  can0  182   [7]  00 00 A2 7C FF FF 00
 (1742566711.103625)  can0  282   [6]  00 00 02 00 04 01
 (1742566711.104500)  can0  181   [7]  00 00 E2 75 FF FF 00
 (1742566711.104720)  can0  281   [6]  02 00 EF FF 03 01
 (1742566711.108326)  can0  182   [7]  00 00 A2 7C FF FF 00
 (1742566711.108599)  can0  282   [6]  00 00 02 00 04 01
 (1742566711.109500)  can0  181   [7]  00 00 E2 75 FF FF 00
 (1742566711.109695)  can0  281   [6]  02 00 EF FF 03 01
 (1742566711.111926)  can0  602   [8]  2B 43 40 00 28 00 00 00
 (1742566711.112322)  can0  582   [8]  60 43 40 00 00 00 00 00
 (1742566711.113350)  can0  182   [7]  00 00 A2 7C FF FF 00
 (1742566711.113624)  can0  282   [6]  00 00 02 00 04 01
 (1742566711.114499)  can0  181   [7]  00 00 E2 75 FF FF 00
 (1742566711.114720)  can0  281   [6]  08 00 EF FF 03 01
 (1742566711.118326)  can0  182   [7]  00 00 A2 7C FF FF 00
 (1742566711.118600)  can0  282   [6]  00 00 02 00 04 01
 (1742566711.119499)  can0  181   [7]  00 00 E2 75 FF FF 00
 (1742566711.119721)  can0  281   [6]  0E 00 EF FF 03 01
 (1742566711.123350)  can0  182   [7]  00 00 A2 7C FF FF 00
 (1742566711.123625)  can0  282   [6]  00 00 02 00 04 01
 (1742566711.124500)  can0  181   [7]  00 00 E2 75 FF FF 00
 (1742566711.124720)  can0  281   [6]  12 00 EF FF 03 01
 (1742566711.128325)  can0  182   [7]  00 00 A2 7C FF FF 00
 (1742566711.128599)  can0  282   [6]  00 00 02 00 04 01
 (1742566711.129499)  can0  181   [7]  00 00 E2 75 FF FF 00
 (1742566711.129720)  can0  281   [6]  14 00 EF FF 03 01
 (1742566711.133351)  can0  182   [7]  00 00 A2 7C FF FF 00
 (1742566711.133627)  can0  282   [6]  00 00 02 00 04 01
 (1742566711.134502)  can0  181   [7]  00 00 E2 75 FF FF 00
 (1742566711.134722)  can0  281   [6]  12 00 EF FF 03 01
 (1742566711.138350)  can0  182   [7]  00 00 A2 7C FF FF 00
 (1742566711.138626)  can0  282   [6]  00 00 02 00 04 01
 (1742566711.139502)  can0  181   [7]  00 00 E2 75 FF FF 00
 (1742566711.139720)  can0  281   [6]  10 00 EF FF 03 01
 (1742566711.143301)  can0  182   [7]  00 00 A2 7C FF FF 00
 (1742566711.143576)  can0  282   [6]  00 00 02 00 04 01
 (1742566711.144502)  can0  181   [7]  00 00 E2 75 FF FF 00
 (1742566711.144722)  can0  281   [6]  0E 00 EF FF 03 01
 (1742566711.148303)  can0  182   [7]  00 00 A2 7C FF FF 00
 (1742566711.148576)  can0  282   [6]  00 00 02 00 04 01
 (1742566711.149502)  can0  181   [7]  00 00 E2 75 FF FF 00
 (1742566711.149722)  can0  281   [6]  0A 00 EF FF 03 01
 (1742566711.153332)  can0  182   [7]  00 00 A2 7C FF FF 00
 (1742566711.153601)  can0  282   [6]  00 00 02 00 04 01
 (1742566711.154502)  can0  181   [7]  00 00 E2 75 FF FF 00
 (1742566711.154722)  can0  281   [6]  08 00 EF FF 03 01
 (1742566711.158369)  can0  182   [7]  00 00 A2 7C FF FF 00
 (1742566711.158642)  can0  282   [6]  00 00 02 00 04 01
 (1742566711.159571)  can0  181   [7]  00 00 E2 75 FF FF 00
 (1742566711.159810)  can0  281   [6]  06 00 EF FF 03 01
 (1742566711.163412)  can0  182   [7]  00 00 A2 7C FF FF 00
 (1742566711.163656)  can0  282   [6]  00 00 16 00 04 01
 (1742566711.164561)  can0  181   [7]  00 00 E2 75 FF FF 00
 (1742566711.164723)  can0  281   [6]  04 00 EF FF 03 01
 (1742566711.167012)  can0  601   [8]  2B 43 40 00 AD FF 00 00
 (1742566711.167563)  can0  581   [8]  60 43 40 00 00 00 00 00
 (1742566711.168408)  can0  182   [7]  00 00 A2 7C FF FF 00
 (1742566711.168693)  can0  282   [6]  18 00 16 00 04 01
 (1742566711.169565)  can0  181   [7]  00 00 E1 75 FF FF 00
 (1742566711.169802)  can0  281   [6]  00 00 EF FF 03 01
 (1742566711.173403)  can0  182   [7]  00 00 A2 7C FF FF 00
 (1742566711.173627)  can0  282   [6]  25 00 16 00 04 01
 (1742566711.174612)  can0  181   [7]  81 FF E1 75 FF FF 00
 (1742566711.174771)  can0  281   [6]  6A 00 02 00 03 01
 (1742566711.176999)  can0  602   [8]  2B 43 40 00 27 00 00 00
 (1742566711.177374)  can0  582   [8]  60 43 40 00 00 00 00 00
 (1742566711.178386)  can0  182   [7]  00 00 A2 7C FF FF 00
 (1742566711.178669)  can0  282   [6]  12 00 16 00 04 01
 (1742566711.179569)  can0  181   [7]  81 FF E1 75 FF FF 00
 (1742566711.179805)  can0  281   [6]  6A 00 03 00 03 01
 (1742566711.183399)  can0  182   [7]  00 00 A2 7C FF FF 00
 (1742566711.183671)  can0  282   [6]  18 00 16 00 04 01
 (1742566711.184571)  can0  181   [7]  81 FF E1 75 FF FF 00
 (1742566711.184797)  can0  281   [6]  6A 00 03 00 04 01
 (1742566711.188388)  can0  182   [7]  00 00 A2 7C FF FF 00
 (1742566711.188667)  can0  282   [6]  25 00 16 00 04 01
 (1742566711.189567)  can0  181   [7]  81 FF E1 75 FF FF 00
 (1742566711.189801)  can0  281   [6]  6A 00 03 00 03 01
 (1742566711.193364)  can0  182   [7]  00 00 A2 7C FF FF 00
 (1742566711.193640)  can0  282   [6]  2F 00 16 00 04 01
 (1742566711.194562)  can0  181   [7]  81 FF E1 75 FF FF 00
 (1742566711.194808)  can0  281   [6]  6A 00 03 00 03 01
 (1742566711.198404)  can0  182   [7]  00 00 A2 7C FF FF 00
 (1742566711.198644)  can0  282   [6]  38 00 16 00 04 01
 (1742566711.199563)  can0  181   [7]  81 FF E1 75 FF FF 00
 (1742566711.199704)  can0  281   [6]  6A 00 FA FF 03 01
 (1742566711.203411)  can0  182   [7]  00 00 A2 7C FF FF 00
 (1742566711.203670)  can0  282   [6]  38 00 16 00 04 01
 (1742566711.204573)  can0  181   [7]  81 FF E1 75 FF FF 00
 (1742566711.204796)  can0  281   [6]  6A 00 F0 FF 03 01
 (1742566711.208413)  can0  182   [7]  00 00 A2 7C FF FF 00
 (1742566711.208674)  can0  282   [6]  31 00 16 00 04 01
 (1742566711.209570)  can0  181   [7]  81 FF E1 75 FF FF 00
 (1742566711.209820)  can0  281   [6]  6A 00 F0 FF 04 01
 (1742566711.213390)  can0  182   [7]  00 00 A2 7C FF FF 00
 (1742566711.213667)  can0  282   [6]  2F 00 16 00 04 01
 (1742566711.214561)  can0  181   [7]  81 FF E1 75 FF FF 00
 (1742566711.214795)  can0  281   [6]  6A 00 F0 FF 04 01
 (1742566711.218391)  can0  182   [7]  00 00 A2 7C FF FF 00
 (1742566711.218668)  can0  282   [6]  34 00 16 00 04 01
 (1742566711.219568)  can0  181   [7]  81 FF E1 75 FF FF 00
 (1742566711.219818)  can0  281   [6]  6A 00 F0 FF 04 01
 (1742566711.223367)  can0  182   [7]  00 00 A2 7C FF FF 00
 (1742566711.223644)  can0  282   [6]  3E 00 16 00 04 01
 (1742566711.224562)  can0  181   [7]  81 FF E1 75 FF FF 00
 (1742566711.224798)  can0  281   [6]  6A 00 F0 FF 04 01
 (1742566711.228394)  can0  182   [7]  00 00 A2 7C FF FF 00
 (1742566711.228669)  can0  282   [6]  3A 00 16 00 04 01
 (1742566711.229568)  can0  181   [7]  81 FF E1 75 FF FF 00
 (1742566711.229798)  can0  281   [6]  6A 00 F0 FF 04 01
 (1742566711.232019)  can0  601   [8]  2B 43 40 00 AC FF 00 00
 (1742566711.232562)  can0  581   [8]  60 43 40 00 00 00 00 00
 (1742566711.233387)  can0  182   [7]  00 00 A2 7C FF FF 00
 (1742566711.233649)  can0  282   [6]  2D 00 16 00 04 01
 (1742566711.234562)  can0  181   [7]  81 FF E1 75 FF FF 00
 (1742566711.234799)  can0  281   [6]  6A 00 F0 FF 04 01
 (1742566711.238399)  can0  182   [7]  00 00 A3 7C FF FF 00
 (1742566711.238669)  can0  282   [6]  1F 00 02 00 04 01
 (1742566711.239627)  can0  181   [7]  81 FF E1 75 FF FF 00
 (1742566711.239771)  can0  281   [6]  6A 00 F0 FF 04 01
 (1742566711.241988)  can0  602   [8]  2B 43 40 00 26 00 00 00
 (1742566711.242433)  can0  582   [8]  60 43 40 00 00 00 00 00
 (1742566711.243382)  can0  182   [7]  00 00 A3 7C FF FF 00
 (1742566711.243642)  can0  282   [6]  12 00 02 00 04 01
 (1742566711.244566)  can0  181   [7]  81 FF E1 75 FF FF 00
 (1742566711.244789)  can0  281   [6]  6A 00 F0 FF 04 01
 (1742566711.248372)  can0  182   [7]  00 00 A3 7C FF FF 00
 (1742566711.248639)  can0  282   [6]  0C 00 02 00 04 01
 (1742566711.249564)  can0  181   [7]  81 FF E1 75 FF FF 00
 (1742566711.249721)  can0  281   [6]  6A 00 F0 FF 04 01
 (1742566711.253363)  can0  182   [7]  00 00 A3 7C FF FF 00
 (1742566711.253643)  can0  282   [6]  00 00 02 00 04 01
 (1742566711.254565)  can0  181   [7]  81 FF E1 75 FF FF 00
 (1742566711.254703)  can0  281   [6]  6A 00 F0 FF 04 01
 (1742566711.258363)  can0  182   [7]  00 00 A3 7C FF FF 00
 (1742566711.258640)  can0  282   [6]  00 00 02 00 04 01
 (1742566711.259562)  can0  181   [7]  81 FF E1 75 FF FF 00
 (1742566711.259798)  can0  281   [6]  6A 00 F0 FF 04 01
 (1742566711.263411)  can0  182   [7]  00 00 A3 7C FF FF 00
 (1742566711.263701)  can0  282   [6]  00 00 02 00 04 01
 (1742566711.264573)  can0  181   [7]  81 FF E1 75 FF FF 00
 (1742566711.264814)  can0  281   [6]  6A 00 F0 FF 04 01
 (1742566711.268396)  can0  182   [7]  00 00 A3 7C FF FF 00
 (1742566711.268664)  can0  282   [6]  00 00 02 00 04 01
 (1742566711.269570)  can0  181   [7]  81 FF E1 75 FF FF 00
 (1742566711.269721)  can0  281   [6]  6A 00 F0 FF 04 01
 (1742566711.273386)  can0  182   [7]  00 00 A3 7C FF FF 00
 (1742566711.273634)  can0  282   [6]  00 00 02 00 04 01
 (1742566711.274561)  can0  181   [7]  81 FF E1 75 FF FF 00
 (1742566711.274801)  can0  281   [6]  6A 00 F0 FF 04 01
 (1742566711.278365)  can0  182   [7]  00 00 A3 7C FF FF 00
 (1742566711.278644)  can0  282   [6]  00 00 02 00 04 01
 (1742566711.279561)  can0  181   [7]  81 FF E0 75 FF FF 00
 (1742566711.279809)  can0  281   [6]  6A 00 F0 FF 04 01
 (1742566711.283421)  can0  182   [7]  00 00 A3 7C FF FF 00
 (1742566711.283697)  can0  282   [6]  00 00 02 00 04 01
 (1742566711.284561)  can0  181   [7]  96 FF E0 75 FF FF 00
 (1742566711.284799)  can0  281   [6]  3E 00 03 00 04 01
 (1742566711.288414)  can0  182   [7]  00 00 A3 7C FF FF 00
 (1742566711.288669)  can0  282   [6]  00 00 02 00 04 01
 (1742566711.289561)  can0  181   [7]  96 FF E0 75 FF FF 00
 (1742566711.289794)  can0  281   [6]  3E 00 03 00 04 01
 (1742566711.293396)  can0  182   [7]  00 00 A3 7C FF FF 00
 (1742566711.293647)  can0  282   [6]  00 00 02 00 04 01
 (1742566711.294564)  can0  181   [7]  96 FF E0 75 FF FF 00
 (1742566711.294794)  can0  281   [6]  3E 00 03 00 04 01
 (1742566711.296990)  can0  601   [8]  2B 43 40 00 A8 FF 00 00
 (1742566711.297562)  can0  581   [8]  60 43 40 00 00 00 00 00
 (1742566711.298403)  can0  182   [7]  00 00 A3 7C FF FF 00
 (1742566711.298668)  can0  282   [6]  00 00 02 00 04 01
 (1742566711.299566)  can0  181   [7]  96 FF E0 75 FF FF 00
 (1742566711.299788)  can0  281   [6]  3E 00 03 00 04 01
 (1742566711.303392)  can0  182   [7]  00 00 A3 7C FF FF 00
 (1742566711.303663)  can0  282   [6]  00 00 02 00 04 01
 (1742566711.304561)  can0  181   [7]  96 FF E0 75 FF FF 00
 (1742566711.304812)  can0  281   [6]  3E 00 03 00 04 01
 (1742566711.307013)  can0  602   [8]  2B 43 40 00 25 00 00 00
 (1742566711.307411)  can0  582   [8]  60 43 40 00 00 00 00 00
 (1742566711.308367)  can0  182   [7]  00 00 A3 7C FF FF 00
 (1742566711.308642)  can0  282   [6]  00 00 02 00 04 01
 (1742566711.309575)  can0  181   [7]  96 FF E0 75 FF FF 00
 (1742566711.309822)  can0  281   [6]  3E 00 03 00 04 01
 (1742566711.313389)  can0  182   [7]  00 00 A3 7C FF FF 00
 (1742566711.313667)  can0  282   [6]  00 00 02 00 04 01
 (1742566711.314558)  can0  181   [7]  96 FF E0 75 FF FF 00
 (1742566711.314790)  can0  281   [6]  3E 00 03 00 03 01
 (1742566711.318394)  can0  182   [7]  00 00 A3 7C FF FF 00
 (1742566711.318657)  can0  282   [6]  00 00 02 00 04 01
 (1742566711.319561)  can0  181   [7]  96 FF E0 75 FF FF 00
 (1742566711.319795)  can0  281   [6]  3E 00 F7 FF 04 01
 (1742566711.323363)  can0  182   [7]  00 00 A3 7C FF FF 00
 (1742566711.323629)  can0  282   [6]  00 00 02 00 04 01
 (1742566711.324565)  can0  181   [7]  96 FF E0 75 FF FF 00
 (1742566711.324801)  can0  281   [6]  3E 00 F0 FF 04 01
 (1742566711.328413)  can0  182   [7]  00 00 A3 7C FF FF 00
 (1742566711.328676)  can0  282   [6]  00 00 02 00 04 01
 (1742566711.329565)  can0  181   [7]  96 FF E0 75 FF FF 00
 (1742566711.329803)  can0  281   [6]  3E 00 F0 FF 04 01
 (1742566711.333371)  can0  182   [7]  00 00 A3 7C FF FF 00
 (1742566711.333644)  can0  282   [6]  00 00 02 00 04 01
 (1742566711.334570)  can0  181   [7]  96 FF E0 75 FF FF 00
 (1742566711.334719)  can0  281   [6]  3E 00 F0 FF 04 01
 (1742566711.338375)  can0  182   [7]  00 00 A3 7C FF FF 00
 (1742566711.338654)  can0  282   [6]  00 00 02 00 04 01
 (1742566711.339562)  can0  181   [7]  96 FF E0 75 FF FF 00
 (1742566711.339804)  can0  281   [6]  3E 00 F0 FF 03 01
 (1742566711.343390)  can0  182   [7]  00 00 A3 7C FF FF 00
 (1742566711.343670)  can0  282   [6]  00 00 02 00 04 01
 (1742566711.344559)  can0  181   [7]  96 FF E0 75 FF FF 00
 (1742566711.344789)  can0  281   [6]  3E 00 F0 FF 03 01
 (1742566711.348361)  can0  182   [7]  00 00 A3 7C FF FF 00
 (1742566711.348629)  can0  282   [6]  00 00 02 00 04 01
 (1742566711.349581)  can0  181   [7]  96 FF E0 75 FF FF 00
 (1742566711.349744)  can0  281   [6]  3E 00 F0 FF 04 01
 (1742566711.353400)  can0  182   [7]  00 00 A3 7C FF FF 00
 (1742566711.353650)  can0  282   [6]  00 00 02 00 04 01
 (1742566711.354565)  can0  181   [7]  96 FF E0 75 FF FF 00
 (1742566711.354813)  can0  281   [6]  3E 00 F0 FF 04 01
 (1742566711.358397)  can0  182   [7]  00 00 A3 7C FF FF 00
 (1742566711.358652)  can0  282   [6]  00 00 02 00 04 01
 (1742566711.359561)  can0  181   [7]  96 FF E0 75 FF FF 00
 (1742566711.359798)  can0  281   [6]  3E 00 F0 FF 04 01
 (1742566711.361988)  can0  601   [8]  2B 43 40 00 A0 FF 00 00
 (1742566711.362561)  can0  581   [8]  60 43 40 00 00 00 00 00
 (1742566711.363388)  can0  182   [7]  00 00 A3 7C FF FF 00
 (1742566711.363639)  can0  282   [6]  00 00 02 00 04 01
 (1742566711.364563)  can0  181   [7]  96 FF E0 75 FF FF 00
 (1742566711.364797)  can0  281   [6]  3E 00 F0 FF 04 01
 (1742566711.368363)  can0  182   [7]  00 00 A3 7C FF FF 00
 (1742566711.368639)  can0  282   [6]  00 00 02 00 04 01
 (1742566711.369559)  can0  181   [7]  96 FF E0 75 FF FF 00
 (1742566711.369779)  can0  281   [6]  3E 00 F0 FF 04 01
 (1742566711.371993)  can0  602   [8]  2B 43 40 00 22 00 00 00
 (1742566711.372395)  can0  582   [8]  60 43 40 00 00 00 00 00
 (1742566711.373382)  can0  182   [7]  00 00 A3 7C FF FF 00
 (1742566711.373639)  can0  282   [6]  00 00 02 00 04 01
 (1742566711.374564)  can0  181   [7]  96 FF E0 75 FF FF 00
 (1742566711.374750)  can0  281   [6]  3E 00 F0 FF 04 01
 (1742566711.378412)  can0  182   [7]  00 00 A3 7C FF FF 00
 (1742566711.378679)  can0  282   [6]  00 00 02 00 04 01
 (1742566711.379584)  can0  181   [7]  96 FF E0 75 FF FF 00
 (1742566711.379779)  can0  281   [6]  3E 00 F0 FF 04 01
 (1742566711.383397)  can0  182   [7]  00 00 A3 7C FF FF 00
 (1742566711.383689)  can0  282   [6]  00 00 02 00 04 01
 (1742566711.384562)  can0  181   [7]  96 FF E0 75 FF FF 00
 (1742566711.384775)  can0  281   [6]  3E 00 F0 FF 04 01
 (1742566711.388380)  can0  182   [7]  00 00 A3 7C FF FF 00
 (1742566711.388630)  can0  282   [6]  00 00 02 00 04 01
 (1742566711.389565)  can0  181   [7]  96 FF E0 75 FF FF 00
 (1742566711.389751)  can0  281   [6]  3E 00 F0 FF 04 01
 (1742566711.393387)  can0  182   [7]  00 00 A3 7C FF FF 00
 (1742566711.393681)  can0  282   [6]  00 00 02 00 04 01
 (1742566711.394565)  can0  181   [7]  96 FF E0 75 FF FF 00
 (1742566711.394757)  can0  281   [6]  3E 00 F0 FF 04 01
 (1742566711.398379)  can0  182   [7]  00 00 A3 7C FF FF 00
 (1742566711.398667)  can0  282   [6]  00 00 02 00 04 01
 (1742566711.399563)  can0  181   [7]  96 FF E0 75 FF FF 00
 (1742566711.399773)  can0  281   [6]  3E 00 F0 FF 04 01
 (1742566711.403488)  can0  182   [7]  00 00 A3 7C FF FF 00
 (1742566711.403652)  can0  282   [6]  00 00 02 00 04 01
 (1742566711.404567)  can0  181   [7]  96 FF E0 75 FF FF 00
 (1742566711.404783)  can0  281   [6]  3E 00 F0 FF 04 01
 (1742566711.408469)  can0  182   [7]  00 00 A3 7C FF FF 00
 (1742566711.408597)  can0  282   [6]  00 00 02 00 04 01
 (1742566711.409558)  can0  181   [7]  96 FF E0 75 FF FF 00
 (1742566711.409744)  can0  281   [6]  3E 00 F0 FF 04 01
 (1742566711.413420)  can0  182   [7]  00 00 A3 7C FF FF 00
 (1742566711.413651)  can0  282   [6]  00 00 02 00 04 01
 (1742566711.414567)  can0  181   [7]  96 FF E0 75 FF FF 00
 (1742566711.414773)  can0  281   [6]  3E 00 F0 FF 04 01
 (1742566711.418396)  can0  182   [7]  00 00 A3 7C FF FF 00
 (1742566711.418644)  can0  282   [6]  00 00 02 00 04 01
 (1742566711.419550)  can0  181   [7]  96 FF E0 75 FF FF 00
 (1742566711.419771)  can0  281   [6]  3E 00 F0 FF 04 01
 (1742566711.423309)  can0  182   [7]  00 00 A3 7C FF FF 00
 (1742566711.423634)  can0  282   [6]  00 00 02 00 04 01
 (1742566711.424562)  can0  181   [7]  96 FF E0 75 FF FF 00
 (1742566711.424777)  can0  281   [6]  3E 00 F0 FF 04 01
 (1742566711.426985)  can0  601   [8]  2B 43 40 00 98 FF 00 00
 (1742566711.427571)  can0  581   [8]  60 43 40 00 00 00 00 00
 (1742566711.428371)  can0  182   [7]  00 00 A3 7C FF FF 00
 (1742566711.428604)  can0  282   [6]  00 00 02 00 04 01
 (1742566711.429667)  can0  181   [7]  96 FF E0 75 FF FF 00
 (1742566711.429707)  can0  281   [6]  3E 00 DC FF 04 01
 (1742566711.433422)  can0  182   [7]  00 00 A3 7C FF FF 00
 (1742566711.433665)  can0  282   [6]  00 00 16 00 04 01
 (1742566711.434562)  can0  181   [7]  96 FF E0 75 FF FF 00
 (1742566711.434757)  can0  281   [6]  3E 00 DC FF 04 01
 (1742566711.436987)  can0  602   [8]  2B 43 40 00 20 00 00 00
 (1742566711.437372)  can0  582   [8]  60 43 40 00 00 00 00 00
 (1742566711.438393)  can0  182   [7]  00 00 A3 7C FF FF 00
 (1742566711.438637)  can0  282   [6]  1D 00 16 00 04 01
 (1742566711.439561)  can0  181   [7]  96 FF E0 75 FF FF 00
 (1742566711.439750)  can0  281   [6]  3E 00 DC FF 03 01
 (1742566711.443362)  can0  182   [7]  00 00 A3 7C FF FF 00
 (1742566711.443658)  can0  282   [6]  27 00 16 00 04 01
 (1742566711.444585)  can0  181   [7]  AB FF DF 75 FF FF 00
 (1742566711.444756)  can0  281   [6]  4A 00 F0 FF 03 01
 (1742566711.448365)  can0  182   [7]  00 00 A3 7C FF FF 00
 (1742566711.448648)  can0  282   [6]  16 00 17 00 04 01
 (1742566711.449565)  can0  181   [7]  AB FF DF 75 FF FF 00
 (1742566711.449749)  can0  281   [6]  4A 00 F0 FF 04 01
 (1742566711.453421)  can0  182   [7]  00 00 A3 7C FF FF 00
 (1742566711.453659)  can0  282   [6]  1F 00 17 00 04 01
 (1742566711.454561)  can0  181   [7]  AB FF DF 75 FF FF 00
 (1742566711.454750)  can0  281   [6]  4A 00 F0 FF 04 01
 (1742566711.458362)  can0  182   [7]  00 00 A3 7C FF FF 00
 (1742566711.458618)  can0  282   [6]  2D 00 17 00 04 01
 (1742566711.459561)  can0  181   [7]  AB FF DF 75 FF FF 00
 (1742566711.459754)  can0  281   [6]  4A 00 F0 FF 04 01
 (1742566711.463394)  can0  182   [7]  00 00 A3 7C FF FF 00
 (1742566711.463680)  can0  282   [6]  3A 00 17 00 04 01
 (1742566711.464510)  can0  181   [7]  AB FF DF 75 FF FF 00
 (1742566711.464789)  can0  281   [6]  4A 00 F0 FF 04 01
 (1742566711.468399)  can0  182   [7]  00 00 A3 7C FF FF 00
 (1742566711.468611)  can0  282   [6]  3A 00 17 00 04 01
 (1742566711.469565)  can0  181   [7]  AB FF DF 75 FF FF 00
 (1742566711.469784)  can0  281   [6]  4A 00 F0 FF 04 01
 (1742566711.473393)  can0  182   [7]  00 00 A3 7C FF FF 00
 (1742566711.473591)  can0  282   [6]  29 00 17 00 04 01
 (1742566711.474564)  can0  181   [7]  AB FF DF 75 FF FF 00
 (1742566711.474778)  can0  281   [6]  4A 00 F0 FF 04 01
 (1742566711.478395)  can0  182   [7]  00 00 A3 7C FF FF 00
 (1742566711.478671)  can0  282   [6]  1F 00 17 00 04 01
 (1742566711.479561)  can0  181   [7]  AB FF DF 75 FF FF 00
 (1742566711.479774)  can0  281   [6]  4A 00 F0 FF 04 01
 (1742566711.483359)  can0  182   [7]  00 00 A3 7C FF FF 00
 (1742566711.483644)  can0  282   [6]  1B 00 17 00 04 01
 (1742566711.484553)  can0  181   [7]  AB FF DF 75 FF FF 00
 (1742566711.484786)  can0  281   [6]  4A 00 F0 FF 04 01
 (1742566711.488391)  can0  182   [7]  00 00 A3 7C FF FF 00
 (1742566711.488640)  can0  282   [6]  18 00 17 00 04 01
 (1742566711.489586)  can0  181   [7]  AB FF DF 75 FF FF 00
 (1742566711.489771)  can0  281   [6]  4A 00 F0 FF 04 01
 (1742566711.491928)  can0  601   [8]  2B 43 40 00 8E FF 00 00
 (1742566711.492498)  can0  581   [8]  60 43 40 00 00 00 00 00
 (1742566711.493293)  can0  182   [7]  00 00 A3 7C FF FF 00
 (1742566711.493547)  can0  282   [6]  18 00 17 00 04 01
 (1742566711.494497)  can0  181   [7]  AB FF DF 75 FF FF 00
 (1742566711.494693)  can0  281   [6]  4A 00 F0 FF 04 01
 (1742566711.498345)  can0  182   [7]  00 00 A3 7C FF FF 00
 (1742566711.498572)  can0  282   [6]  18 00 17 00 04 01
 (1742566711.499497)  can0  181   [7]  AB FF DF 75 FF FF 00
 (1742566711.499694)  can0  281   [6]  4A 00 F0 FF 04 01
 (1742566711.501924)  can0  602   [8]  2B 43 40 00 1C 00 00 00
 (1742566711.502320)  can0  582   [8]  60 43 40 00 00 00 00 00
 (1742566711.503298)  can0  182   [7]  00 00 A4 7C FF FF 00
 (1742566711.503573)  can0  282   [6]  16 00 03 00 04 01
 (1742566711.504497)  can0  181   [7]  AB FF DF 75 FF FF 00
 (1742566711.504720)  can0  281   [6]  4A 00 F0 FF 04 01
 (1742566711.508299)  can0  182   [7]  00 00 A4 7C FF FF 00
 (1742566711.508573)  can0  282   [6]  18 00 03 00 04 01
 (1742566711.509498)  can0  181   [7]  AB FF DF 75 FF FF 00
 (1742566711.509719)  can0  281   [6]  4A 00 F0 FF 04 01
 (1742566711.513274)  can0  182   [7]  00 00 A4 7C FF FF 00
 (1742566711.513497)  can0  282   [6]  10 00 03 00 04 01
 (1742566711.514498)  can0  181   [7]  AB FF DF 75 FF FF 00
 (1742566711.514719)  can0  281   [6]  4A 00 F0 FF 04 01
 (1742566711.518299)  can0  182   [7]  00 00 A4 7C FF FF 00
 (1742566711.518573)  can0  282   [6]  04 00 03 00 04 01
 (1742566711.519498)  can0  181   [7]  AB FF DF 75 FF FF 00
 (1742566711.519719)  can0  281   [6]  4A 00 DC FF 04 01
 (1742566711.523348)  can0  182   [7]  00 00 A4 7C FF FF 00
 (1742566711.523623)  can0  282   [6]  00 00 03 00 04 01
 (1742566711.524498)  can0  181   [7]  AB FF DE 75 FF FF 00
 (1742566711.524719)  can0  281   [6]  4A 00 DC FF 04 01
 (1742566711.528330)  can0  182   [7]  00 00 A4 7C FF FF 00
 (1742566711.528598)  can0  282   [6]  00 00 03 00 04 01
 (1742566711.529499)  can0  181   [7]  A4 FF DE 75 FF FF 00
 (1742566711.529719)  can0  281   [6]  44 00 F0 FF 04 01
 (1742566711.533300)  can0  182   [7]  00 00 A4 7C FF FF 00
 (1742566711.533573)  can0  282   [6]  00 00 03 00 04 01
 (1742566711.534498)  can0  181   [7]  A4 FF DE 75 FF FF 00
 (1742566711.534719)  can0  281   [6]  44 00 F0 FF 04 01
 (1742566711.538299)  can0  182   [7]  00 00 A4 7C FF FF 00
 (1742566711.538573)  can0  282   [6]  00 00 03 00 04 01
 (1742566711.539498)  can0  181   [7]  A4 FF DE 75 FF FF 00
 (1742566711.539719)  can0  281   [6]  44 00 F0 FF 04 01
 (1742566711.543273)  can0  182   [7]  00 00 A4 7C FF FF 00
 (1742566711.543497)  can0  282   [6]  00 00 03 00 04 01
 (1742566711.544498)  can0  181   [7]  A4 FF DE 75 FF FF 00
 (1742566711.544718)  can0  281   [6]  44 00 F0 FF 04 01
 (1742566711.548322)  can0  182   [7]  00 00 A4 7C FF FF 00
 (1742566711.548597)  can0  282   [6]  00 00 03 00 04 01
 (1742566711.549498)  can0  181   [7]  A4 FF DE 75 FF FF 00
 (1742566711.549693)  can0  281   [6]  44 00 F0 FF 04 01
 (1742566711.553324)  can0  182   [7]  00 00 A4 7C FF FF 00
 (1742566711.553597)  can0  282   [6]  00 00 03 00 04 01
 (1742566711.554498)  can0  181   [7]  A4 FF DE 75 FF FF 00
 (1742566711.554719)  can0  281   [6]  44 00 F0 FF 04 01
 (1742566711.556974)  can0  601   [8]  2B 43 40 00 81 FF 00 00
 (1742566711.557498)  can0  581   [8]  60 43 40 00 00 00 00 00
 (1742566711.558344)  can0  182   [7]  00 00 A4 7C FF FF 00
 (1742566711.558598)  can0  282   [6]  00 00 03 00 04 01
 (1742566711.559498)  can0  181   [7]  A4 FF DE 75 FF FF 00
 (1742566711.559694)  can0  281   [6]  44 00 F0 FF 04 01
 (1742566711.563299)  can0  182   [7]  00 00 A4 7C FF FF 00
 (1742566711.563572)  can0  282   [6]  00 00 03 00 04 01
 (1742566711.564506)  can0  181   [7]  A4 FF DE 75 FF FF 00
 (1742566711.564693)  can0  281   [6]  44 00 F0 FF 04 01
 (1742566711.566924)  can0  602   [8]  2B 43 40 00 17 00 00 00
 (1742566711.567319)  can0  582   [8]  60 43 40 00 00 00 00 00
 (1742566711.568299)  can0  182   [7]  00 00 A4 7C FF FF 00
 (1742566711.568572)  can0  282   [6]  00 00 03 00 04 01
 (1742566711.569498)  can0  181   [7]  A4 FF DE 75 FF FF 00
 (1742566711.569693)  can0  281   [6]  44 00 F0 FF 04 01
 (1742566711.573324)  can0  182   [7]  00 00 A4 7C FF FF 00
 (1742566711.573597)  can0  282   [6]  00 00 03 00 04 01
 (1742566711.574498)  can0  181   [7]  A4 FF DE 75 FF FF 00
 (1742566711.574719)  can0  281   [6]  44 00 F0 FF 04 01
 (1742566711.578324)  can0  182   [7]  00 00 A4 7C FF FF 00
 (1742566711.578600)  can0  282   [6]  00 00 03 00 04 01
 (1742566711.579500)  can0  181   [7]  A4 FF DE 75 FF FF 00
 (1742566711.579696)  can0  281   [6]  44 00 F0 FF 04 01
 (1742566711.583300)  can0  182   [7]  00 00 A4 7C FF FF 00
 (1742566711.583575)  can0  282   [6]  00 00 03 00 04 01
 (1742566711.584498)  can0  181   [7]  A4 FF DE 75 FF FF 00
 (1742566711.584694)  can0  281   [6]  44 00 F0 FF 04 01
 (1742566711.588301)  can0  182   [7]  00 00 A4 7C FF FF 00
 (1742566711.588574)  can0  282   [6]  00 00 03 00 04 01
 (1742566711.589499)  can0  181   [7]  A4 FF DE 75 FF FF 00
 (1742566711.589694)  can0  281   [6]  44 00 F0 FF 04 01
 (1742566711.593325)  can0  182   [7]  00 00 A4 7C FF FF 00
 (1742566711.593598)  can0  282   [6]  00 00 03 00 04 01
 (1742566711.594498)  can0  181   [7]  A4 FF DE 75 FF FF 00
 (1742566711.594694)  can0  281   [6]  44 00 F0 FF 04 01
 (1742566711.598345)  can0  182   [7]  00 00 A4 7C FF FF 00
 (1742566711.598598)  can0  282   [6]  00 00 03 00 04 01
 (1742566711.599421)  can0  181   [7]  A4 FF DE 75 FF FF 00
 (1742566711.599698)  can0  281   [6]  44 00 F0 FF 04 01
 (1742566711.603324)  can0  182   [7]  00 00 A4 7C FF FF 00
 (1742566711.603597)  can0  282   [6]  00 00 03 00 04 01
 (1742566711.604498)  can0  181   [7]  9E FF DD 75 FF FF 00
 (1742566711.604693)  can0  281   [6]  3A 00 F3 FF 04 01
 (1742566711.608299)  can0  182   [7]  00 00 A4 7C FF FF 00
 (1742566711.608574)  can0  282   [6]  00 00 03 00 04 01
 (1742566711.609501)  can0  181   [7]  9E FF DD 75 FF FF 00
 (1742566711.609695)  can0  281   [6]  3A 00 F0 FF 04 01
 (1742566711.613351)  can0  182   [7]  00 00 A4 7C FF FF 00
 (1742566711.613624)  can0  282   [6]  00 00 03 00 04 01
 (1742566711.614499)  can0  181   [7]  9E FF DD 75 FF FF 00
 (1742566711.614695)  can0  281   [6]  3A 00 F0 FF 03 01
 (1742566711.618326)  can0  182   [7]  00 00 A4 7C FF FF 00
 (1742566711.618600)  can0  282   [6]  00 00 03 00 04 01
 (1742566711.619500)  can0  181   [7]  9E FF DD 75 FF FF 00
 (1742566711.619671)  can0  281   [6]  3A 00 F0 FF 03 01
 (1742566711.621949)  can0  601   [8]  2B 43 40 00 6E FF 00 00
 (1742566711.622560)  can0  581   [8]  60 43 40 00 00 00 00 00
 (1742566711.623386)  can0  182   [7]  00 00 A4 7C FF FF 00
 (1742566711.623618)  can0  282   [6]  00 00 03 00 04 01
 (1742566711.624560)  can0  181   [7]  9E FF DD 75 FF FF 00
 (1742566711.624789)  can0  281   [6]  3A 00 F0 FF 03 01
 (1742566711.628374)  can0  182   [7]  00 00 A4 7C FF FF 00
 (1742566711.628640)  can0  282   [6]  00 00 03 00 04 01
 (1742566711.629567)  can0  181   [7]  9E FF DD 75 FF FF 00
 (1742566711.629797)  can0  281   [6]  3A 00 F0 FF 03 01
 (1742566711.631991)  can0  602   [8]  2B 43 40 00 0C 00 00 00
 (1742566711.632347)  can0  582   [8]  60 43 40 00 00 00 00 00
 (1742566711.633391)  can0  182   [7]  00 00 A4 7C FF FF 00
 (1742566711.633664)  can0  282   [6]  00 00 03 00 04 01
 (1742566711.634567)  can0  181   [7]  9E FF DD 75 FF FF 00
 (1742566711.634703)  can0  281   [6]  3A 00 F0 FF 03 01
 (1742566711.638354)  can0  182   [7]  00 00 A4 7C FF FF 00
 (1742566711.638573)  can0  282   [6]  00 00 03 00 04 01
 (1742566711.639565)  can0  181   [7]  9E FF DD 75 FF FF 00
 (1742566711.639790)  can0  281   [6]  3A 00 F0 FF 03 01
 (1742566711.643384)  can0  182   [7]  00 00 A4 7C FF FF 00
 (1742566711.643659)  can0  282   [6]  00 00 03 00 04 01
 (1742566711.644563)  can0  181   [7]  9E FF DD 75 FF FF 00
 (1742566711.644779)  can0  281   [6]  3A 00 F0 FF 03 01
 (1742566711.648400)  can0  182   [7]  00 00 A4 7C FF FF 00
 (1742566711.648654)  can0  282   [6]  00 00 03 00 04 01
 (1742566711.649561)  can0  181   [7]  9E FF DD 75 FF FF 00
 (1742566711.649686)  can0  281   [6]  3A 00 F0 FF 03 01
 (1742566711.653360)  can0  182   [7]  00 00 A4 7C FF FF 00
 (1742566711.653645)  can0  282   [6]  00 00 03 00 04 01
 (1742566711.654565)  can0  181   [7]  9E FF DD 75 FF FF 00
 (1742566711.654718)  can0  281   [6]  3A 00 F0 FF 03 01
 (1742566711.658385)  can0  182   [7]  00 00 A4 7C FF FF 00
 (1742566711.658665)  can0  282   [6]  00 00 03 00 04 01
 (1742566711.659560)  can0  181   [7]  9E FF DD 75 FF FF 00
 (1742566711.659803)  can0  281   [6]  3A 00 F0 FF 03 01
 (1742566711.663361)  can0  182   [7]  00 00 A4 7C FF FF 00
 (1742566711.663648)  can0  282   [6]  00 00 03 00 04 01
 (1742566711.664567)  can0  181   [7]  9E FF DD 75 FF FF 00
 (1742566711.664701)  can0  281   [6]  3A 00 F0 FF 03 01
 (1742566711.668381)  can0  182   [7]  00 00 A4 7C FF FF 00
 (1742566711.668614)  can0  282   [6]  00 00 03 00 04 01
 (1742566711.669564)  can0  181   [7]  9E FF DD 75 FF FF 00
 (1742566711.669797)  can0  281   [6]  3A 00 F0 FF 03 01
 (1742566711.673373)  can0  182   [7]  00 00 A4 7C FF FF 00
 (1742566711.673630)  can0  282   [6]  00 00 03 00 04 01
 (1742566711.674571)  can0  181   [7]  9E FF DD 75 FF FF 00
 (1742566711.674720)  can0  281   [6]  3A 00 DC FF 03 01
 (1742566711.678361)  can0  182   [7]  00 00 A4 7C FF FF 00
 (1742566711.678642)  can0  282   [6]  00 00 03 00 04 01
 (1742566711.679560)  can0  181   [7]  9E FF DD 75 FF FF 00
 (1742566711.679719)  can0  281   [6]  3A 00 DC FF 03 01
 (1742566711.683389)  can0  182   [7]  00 00 A4 7C FF FF 00
 (1742566711.683668)  can0  282   [6]  00 00 03 00 04 01
 (1742566711.684570)  can0  181   [7]  9E FF DD 75 FF FF 00
 (1742566711.684669)  can0  281   [6]  3A 00 DC FF 03 01
 (1742566711.686989)  can0  601   [8]  2B 43 40 00 51 FF 00 00
 (1742566711.687562)  can0  581   [8]  60 43 40 00 00 00 00 00
 (1742566711.688348)  can0  182   [7]  00 00 A4 7C FF FF 00
 (1742566711.688523)  can0  282   [6]  00 00 03 00 04 01
 (1742566711.689562)  can0  181   [7]  9E FF DD 75 FF FF 00
 (1742566711.689800)  can0  281   [6]  3A 00 DC FF 03 01
 (1742566711.693373)  can0  182   [7]  00 00 A4 7C FF FF 00
 (1742566711.693642)  can0  282   [6]  00 00 03 00 04 01
 (1742566711.694554)  can0  181   [7]  9E FF DC 75 FF FF 00
 (1742566711.694703)  can0  281   [6]  3A 00 DC FF 03 01
 (1742566711.696985)  can0  602   [8]  2B 43 40 00 F6 FF 00 00
 (1742566711.697386)  can0  582   [8]  60 43 40 00 00 00 00 00
 (1742566711.698425)  can0  182   [7]  00 00 A4 7C FF FF 00
 (1742566711.698638)  can0  282   [6]  00 00 03 00 04 01
 (1742566711.699569)  can0  181   [7]  9D FF DC 75 FF FF 00
 (1742566711.699804)  can0  281   [6]  36 00 F0 FF 03 01
 (1742566711.703385)  can0  182   [7]  00 00 A4 7C FF FF 00
 (1742566711.703668)  can0  282   [6]  00 00 00 00 04 01
 (1742566711.704560)  can0  181   [7]  9D FF DC 75 FF FF 00
 (1742566711.704798)  can0  281   [6]  36 00 F0 FF 03 01
 (1742566711.708363)  can0  182   [7]  00 00 A4 7C FF FF 00
 (1742566711.708590)  can0  282   [6]  00 00 00 00 04 01
 (1742566711.709565)  can0  181   [7]  9D FF DC 75 FF FF 00
 (1742566711.709787)  can0  281   [6]  36 00 F0 FF 03 01
 (1742566711.713363)  can0  182   [7]  00 00 A4 7C FF FF 00
 (1742566711.713627)  can0  282   [6]  00 00 00 00 04 01
 (1742566711.714573)  can0  181   [7]  9D FF DC 75 FF FF 00
 (1742566711.714795)  can0  281   [6]  36 00 F0 FF 03 01
 (1742566711.718362)  can0  182   [7]  00 00 A4 7C FF FF 00
 (1742566711.718643)  can0  282   [6]  00 00 00 00 04 01
 (1742566711.719574)  can0  181   [7]  9D FF DC 75 FF FF 00
 (1742566711.719796)  can0  281   [6]  36 00 F0 FF 03 01
 (1742566711.723373)  can0  182   [7]  00 00 A4 7C FF FF 00
 (1742566711.723636)  can0  282   [6]  00 00 00 00 04 01
 (1742566711.724562)  can0  181   [7]  9D FF DC 75 FF FF 00
 (1742566711.724798)  can0  281   [6]  36 00 F0 FF 04 01
 (1742566711.728340)  can0  182   [7]  00 00 A4 7C FF FF 00
 (1742566711.728618)  can0  282   [6]  00 00 00 00 04 01
 (1742566711.729561)  can0  181   [7]  9D FF DC 75 FF FF 00
 (1742566711.729797)  can0  281   [6]  36 00 F0 FF 03 01
 (1742566711.733367)  can0  182   [7]  00 00 A4 7C FF FF 00
 (1742566711.733641)  can0  282   [6]  00 00 00 00 04 01
 (1742566711.734559)  can0  181   [7]  9D FF DC 75 FF FF 00
 (1742566711.734797)  can0  281   [6]  36 00 DC FF 03 01
 (1742566711.738420)  can0  182   [7]  00 00 A4 7C FF FF 00
 (1742566711.738660)  can0  282   [6]  00 00 00 00 04 01
 (1742566711.739565)  can0  181   [7]  9D FF DC 75 FF FF 00
 (1742566711.739798)  can0  281   [6]  36 00 DC FF 03 01
 (1742566711.743356)  can0  182   [7]  00 00 A4 7C FF FF 00
 (1742566711.743523)  can0  282   [6]  00 00 00 00 04 01
 (1742566711.744567)  can0  181   [7]  9D FF DC 75 FF FF 00
 (1742566711.744668)  can0  281   [6]  36 00 DC FF 03 01
 (1742566711.748390)  can0  182   [7]  00 00 A4 7C FF FF 00
 (1742566711.748664)  can0  282   [6]  00 00 00 00 04 01
 (1742566711.749571)  can0  181   [7]  9D FF DC 75 FF FF 00
 (1742566711.749668)  can0  281   [6]  36 00 DC FF 03 01
 (1742566711.752012)  can0  601   [8]  2B 43 40 00 2B FF 00 00
 (1742566711.752575)  can0  581   [8]  60 43 40 00 00 00 00 00
 (1742566711.753392)  can0  182   [7]  00 00 A4 7C FF FF 00
 (1742566711.753646)  can0  282   [6]  00 00 00 00 04 01
 (1742566711.754563)  can0  181   [7]  9D FF DB 75 FF FF 00
 (1742566711.754791)  can0  281   [6]  36 00 DB FF 03 01
 (1742566711.758341)  can0  182   [7]  00 00 A4 7C FF FF 00
 (1742566711.758618)  can0  282   [6]  00 00 00 00 04 01
 (1742566711.759564)  can0  181   [7]  97 FF DB 75 FF FF 00
 (1742566711.759788)  can0  281   [6]  2F 00 EF FF 03 01
 (1742566711.761987)  can0  602   [8]  2B 43 40 00 D1 FF 00 00
 (1742566711.762386)  can0  582   [8]  60 43 40 00 00 00 00 00
 (1742566711.763384)  can0  182   [7]  00 00 A4 7C FF FF 00
 (1742566711.763665)  can0  282   [6]  00 00 00 00 04 01
 (1742566711.764574)  can0  181   [7]  97 FF DB 75 FF FF 00
 (1742566711.764784)  can0  281   [6]  2F 00 EF FF 04 01
 (1742566711.768389)  can0  182   [7]  00 00 A4 7C FF FF 00
 (1742566711.768678)  can0  282   [6]  00 00 00 00 04 01
 (1742566711.769570)  can0  181   [7]  97 FF DB 75 FF FF 00
 (1742566711.769781)  can0  281   [6]  2F 00 EF FF 04 01
 (1742566711.773341)  can0  182   [7]  00 00 A4 7C FF FF 00
 (1742566711.773615)  can0  282   [6]  00 00 00 00 04 01
 (1742566711.774485)  can0  181   [7]  97 FF DB 75 FF FF 00
 (1742566711.774725)  can0  281   [6]  2F 00 EF FF 04 01
 (1742566711.778383)  can0  182   [7]  00 00 A4 7C FF FF 00
 (1742566711.778661)  can0  282   [6]  00 00 00 00 04 01
 (1742566711.779482)  can0  181   [7]  97 FF DB 75 FF FF 00
 (1742566711.779760)  can0  281   [6]  2F 00 EF FF 04 01
 (1742566711.783389)  can0  182   [7]  00 00 A4 7C FF FF 00
 (1742566711.783665)  can0  282   [6]  00 00 00 00 04 01
 (1742566711.784565)  can0  181   [7]  97 FF DB 75 FF FF 00
 (1742566711.784697)  can0  281   [6]  2F 00 EF FF 04 01
 (1742566711.788372)  can0  182   [7]  00 00 A4 7C FF FF 00
 (1742566711.788644)  can0  282   [6]  00 00 00 00 04 01
 (1742566711.789483)  can0  181   [7]  97 FF DB 75 FF FF 00
 (1742566711.789745)  can0  281   [6]  2F 00 DB FF 04 01
 (1742566711.793372)  can0  182   [7]  00 00 A4 7C FF FF 00
 (1742566711.793638)  can0  282   [6]  00 00 00 00 04 01
 (1742566711.794579)  can0  181   [7]  97 FF DB 75 FF FF 00
 (1742566711.794694)  can0  281   [6]  2F 00 DB FF 04 01
 (1742566711.798408)  can0  182   [7]  00 00 A4 7C FF FF 00
 (1742566711.798641)  can0  282   [6]  00 00 00 00 04 01
 (1742566711.799578)  can0  181   [7]  97 FF DB 75 FF FF 00
 (1742566711.799718)  can0  281   [6]  2F 00 DB FF 04 01
 (1742566711.803363)  can0  182   [7]  00 00 A4 7C FF FF 00
 (1742566711.803633)  can0  282   [6]  00 00 00 00 04 01
 (1742566711.804563)  can0  181   [7]  90 FF DA 75 FF FF 00
 (1742566711.804785)  can0  281   [6]  2B 00 EF FF 04 01
 (1742566711.808344)  can0  182   [7]  00 00 A4 7C FF FF 00
 (1742566711.808547)  can0  282   [6]  00 00 00 00 04 01
 (1742566711.809560)  can0  181   [7]  90 FF DA 75 FF FF 00
 (1742566711.809789)  can0  281   [6]  2B 00 EF FF 04 01
 (1742566711.813359)  can0  182   [7]  00 00 A4 7C FF FF 00
 (1742566711.813630)  can0  282   [6]  00 00 00 00 04 01
 (1742566711.814470)  can0  181   [7]  90 FF DA 75 FF FF 00
 (1742566711.814764)  can0  281   [6]  2B 00 EF FF 04 01
 (1742566711.816986)  can0  601   [8]  2B 43 40 00 F8 FE 00 00
 (1742566711.817563)  can0  581   [8]  60 43 40 00 00 00 00 00
 (1742566711.818394)  can0  182   [7]  00 00 A4 7C FF FF 00
 (1742566711.818628)  can0  282   [6]  00 00 00 00 04 01
 (1742566711.819505)  can0  181   [7]  90 FF DA 75 FF FF 00
 (1742566711.819794)  can0  281   [6]  2B 00 EF FF 04 01
 (1742566711.823385)  can0  182   [7]  00 00 A4 7C FF FF 00
 (1742566711.823652)  can0  282   [6]  00 00 00 00 04 01
 (1742566711.824480)  can0  181   [7]  90 FF DA 75 FF FF 00
 (1742566711.824739)  can0  281   [6]  2B 00 EF FF 04 01
 (1742566711.826988)  can0  602   [8]  2B 43 40 00 A0 FF 00 00
 (1742566711.827363)  can0  582   [8]  60 43 40 00 00 00 00 00
 (1742566711.828335)  can0  182   [7]  00 00 A4 7C FF FF 00
 (1742566711.828616)  can0  282   [6]  00 00 00 00 04 01
 (1742566711.829576)  can0  181   [7]  90 FF DA 75 FF FF 00
 (1742566711.829700)  can0  281   [6]  2B 00 EF FF 04 01
 (1742566711.833376)  can0  182   [7]  00 00 A4 7C FF FF 00
 (1742566711.833638)  can0  282   [6]  00 00 00 00 04 01
 (1742566711.834574)  can0  181   [7]  90 FF DA 75 FF FF 00
 (1742566711.834782)  can0  281   [6]  2B 00 DB FF 04 01
 (1742566711.838340)  can0  182   [7]  00 00 A4 7C FF FF 00
 (1742566711.838551)  can0  282   [6]  00 00 00 00 04 01
 (1742566711.839561)  can0  181   [7]  90 FF DA 75 FF FF 00
 (1742566711.839780)  can0  281   [6]  2B 00 DB FF 03 01
 (1742566711.843374)  can0  182   [7]  00 00 A4 7C FF FF 00
 (1742566711.843636)  can0  282   [6]  00 00 00 00 04 01
 (1742566711.844477)  can0  181   [7]  90 FF DA 75 FF FF 00
 (1742566711.844730)  can0  281   [6]  2B 00 DB FF 03 01
 (1742566711.848301)  can0  182   [7]  00 00 A4 7C FF FF 00
 (1742566711.848572)  can0  282   [6]  00 00 00 00 04 01
 (1742566711.849472)  can0  181   [7]  90 FF DA 75 FF FF 00
 (1742566711.849762)  can0  281   [6]  2B 00 DB FF 03 01
 (1742566711.853361)  can0  182   [7]  00 00 A4 7C FF FF 00
 (1742566711.853639)  can0  282   [6]  00 00 00 00 04 01
 (1742566711.854561)  can0  181   [7]  8A FF D9 75 FF FF 00
 (1742566711.854785)  can0  281   [6]  2B 00 EF FF 04 01
 (1742566711.858398)  can0  182   [7]  00 00 A4 7C FF FF 00
 (1742566711.858656)  can0  282   [6]  00 00 00 00 04 01
 (1742566711.859567)  can0  181   [7]  8A FF D9 75 FF FF 00
 (1742566711.859798)  can0  281   [6]  2B 00 EF FF 04 01
 (1742566711.863354)  can0  182   [7]  00 00 A4 7C FF FF 00
 (1742566711.863610)  can0  282   [6]  00 00 F8 FF 04 01
 (1742566711.864560)  can0  181   [7]  8A FF D9 75 FF FF 00
 (1742566711.864781)  can0  281   [6]  2B 00 EF FF 04 01
 (1742566711.868391)  can0  182   [7]  00 00 A4 7C FF FF 00
 (1742566711.868682)  can0  282   [6]  0A 00 EC FF 04 01
 (1742566711.869562)  can0  181   [7]  8A FF D9 75 FF FF 00
 (1742566711.869788)  can0  281   [6]  2B 00 DB FF 04 01
 (1742566711.873372)  can0  182   [7]  00 00 A4 7C FF FF 00
 (1742566711.873628)  can0  282   [6]  25 00 EC FF 04 01
 (1742566711.874561)  can0  181   [7]  8A FF D9 75 FF FF 00
 (1742566711.874692)  can0  281   [6]  2B 00 DB FF 04 01
 (1742566711.878335)  can0  182   [7]  00 00 A4 7C FF FF 00
 (1742566711.878575)  can0  282   [6]  1D 00 EC FF 04 01
 (1742566711.879488)  can0  181   [7]  8A FF D9 75 FF FF 00
 (1742566711.879740)  can0  281   [6]  2B 00 DB FF 04 01
 (1742566711.881999)  can0  601   [8]  2B 43 40 00 B8 FE 00 00
 (1742566711.882560)  can0  581   [8]  60 43 40 00 00 00 00 00
 (1742566711.883375)  can0  182   [7]  00 00 A4 7C FF FF 00
 (1742566711.883615)  can0  282   [6]  12 00 EC FF 04 01
 (1742566711.884571)  can0  181   [7]  8A FF D9 75 FF FF 00
 (1742566711.884775)  can0  281   [6]  2B 00 DB FF 04 01
 (1742566711.888406)  can0  182   [7]  00 00 A4 7C FF FF 00
 (1742566711.888662)  can0  282   [6]  14 00 EC FF 04 01
 (1742566711.889561)  can0  181   [7]  8A FF D9 75 FF FF 00
 (1742566711.889779)  can0  281   [6]  2B 00 DB FF 04 01
 (1742566711.891960)  can0  602   [8]  2B 43 40 00 66 FF 00 00
 (1742566711.892358)  can0  582   [8]  60 43 40 00 00 00 00 00
 (1742566711.893353)  can0  182   [7]  00 00 A3 7C FF FF 00
 (1742566711.893557)  can0  282   [6]  0E 00 00 00 04 01
 (1742566711.894558)  can0  181   [7]  8A FF D8 75 FF FF 00
 (1742566711.894761)  can0  281   [6]  2B 00 DB FF 04 01
 (1742566711.898426)  can0  182   [7]  00 00 A3 7C FF FF 00
 (1742566711.898651)  can0  282   [6]  02 00 00 00 04 01
 (1742566711.899578)  can0  181   [7]  84 FF D8 75 FF FF 00
 (1742566711.899693)  can0  281   [6]  2B 00 EF FF 04 01
 (1742566711.903344)  can0  182   [7]  00 00 A3 7C FF FF 00
 (1742566711.903592)  can0  282   [6]  00 00 00 00 04 01
 (1742566711.904561)  can0  181   [7]  84 FF D8 75 FF FF 00
 (1742566711.904793)  can0  281   [6]  2B 00 DF FF 04 01
 (1742566711.908370)  can0  182   [7]  00 00 A3 7C FF FF 00
 (1742566711.908637)  can0  282   [6]  00 00 00 00 04 01
 (1742566711.909559)  can0  181   [7]  84 FF D8 75 FF FF 00
 (1742566711.909795)  can0  281   [6]  2B 00 DB FF 04 01
 (1742566711.913348)  can0  182   [7]  00 00 A3 7C FF FF 00
 (1742566711.913581)  can0  282   [6]  00 00 00 00 04 01
 (1742566711.914591)  can0  181   [7]  84 FF D8 75 FF FF 00
 (1742566711.914699)  can0  281   [6]  2B 00 DB FF 04 01
 (1742566711.918344)  can0  182   [7]  00 00 A3 7C FF FF 00
 (1742566711.918572)  can0  282   [6]  00 00 00 00 04 01
 (1742566711.919575)  can0  181   [7]  84 FF D8 75 FF FF 00
 (1742566711.919701)  can0  281   [6]  2B 00 DB FF 04 01
 (1742566711.923383)  can0  182   [7]  00 00 A3 7C FF FF 00
 (1742566711.923673)  can0  282   [6]  00 00 00 00 04 01
 (1742566711.924567)  can0  181   [7]  84 FF D8 75 FF FF 00
 (1742566711.924787)  can0  281   [6]  2B 00 DB FF 04 01
 (1742566711.928394)  can0  182   [7]  01 01 A4 7C FF FF 00
 (1742566711.928665)  can0  282   [6]  00 00 F6 FF 04 01
 (1742566711.929426)  can0  181   [7]  7D FF D7 75 FF FF 00
 (1742566711.929697)  can0  281   [6]  29 00 EF FF 04 01
 (1742566711.933370)  can0  182   [7]  01 01 A4 7C FF FF 00
 (1742566711.933604)  can0  282   [6]  00 00 EC FF 04 01
 (1742566711.934571)  can0  181   [7]  7D FF D7 75 FF FF 00
 (1742566711.934770)  can0  281   [6]  29 00 DB FF 04 01
 (1742566711.938387)  can0  182   [7]  01 01 A4 7C FF FF 00
 (1742566711.938660)  can0  282   [6]  00 00 EC FF 04 01
 (1742566711.939560)  can0  181   [7]  7D FF D7 75 FF FF 00
 (1742566711.939774)  can0  281   [6]  29 00 DA FF 03 01
 (1742566711.943364)  can0  182   [7]  01 01 A4 7C FF FF 00
 (1742566711.943639)  can0  282   [6]  00 00 E6 FF 04 01
 (1742566711.944558)  can0  181   [7]  7D FF D7 75 FF FF 00
 (1742566711.944802)  can0  281   [6]  29 00 DA FF 03 01
 (1742566711.946985)  can0  601   [8]  2B 43 40 00 6F FE 00 00
 (1742566711.947569)  can0  581   [8]  60 43 40 00 00 00 00 00
 (1742566711.948382)  can0  182   [7]  99 FE A3 7C FF FF 00
 (1742566711.948571)  can0  282   [6]  23 00 EC FF 04 01
 (1742566711.949573)  can0  181   [7]  7D FF D7 75 FF FF 00
 (1742566711.949794)  can0  281   [6]  29 00 DA FF 03 01
 (1742566711.953327)  can0  182   [7]  99 FE A3 7C FF FF 00
 (1742566711.953567)  can0  282   [6]  23 00 EC FF 04 01
 (1742566711.954482)  can0  181   [7]  7D FF D7 75 FF FF 00
 (1742566711.954741)  can0  281   [6]  29 00 DA FF 03 01
 (1742566711.957015)  can0  602   [8]  2B 43 40 00 27 FF 00 00
 (1742566711.957368)  can0  582   [8]  60 43 40 00 00 00 00 00
 (1742566711.958404)  can0  182   [7]  99 FE A3 7C FF FF 00
 (1742566711.958643)  can0  282   [6]  23 00 EC FF 04 01
 (1742566711.959569)  can0  181   [7]  7D FF D7 75 FF FF 00
 (1742566711.959815)  can0  281   [6]  29 00 DA FF 03 01
 (1742566711.963398)  can0  182   [7]  99 FE A3 7C FF FF 00
 (1742566711.963666)  can0  282   [6]  23 00 EC FF 04 01
 (1742566711.964566)  can0  181   [7]  77 FF D6 75 FF FF 00
 (1742566711.964700)  can0  281   [6]  23 00 DA FF 03 01
 (1742566711.968344)  can0  182   [7]  99 FE A3 7C FF FF 00
 (1742566711.968553)  can0  282   [6]  23 00 EC FF 04 01
 (1742566711.969568)  can0  181   [7]  77 FF D6 75 FF FF 00
 (1742566711.969764)  can0  281   [6]  23 00 DA FF 03 01
 (1742566711.973347)  can0  182   [7]  9B FE A3 7C FF FF 00
 (1742566711.973604)  can0  282   [6]  23 00 EC FF 04 01
 (1742566711.974558)  can0  181   [7]  77 FF D6 75 FF FF 00
 (1742566711.974787)  can0  281   [6]  23 00 DA FF 03 01
 (1742566711.978364)  can0  182   [7]  AF FE A3 7C FF FF 00
 (1742566711.978639)  can0  282   [6]  23 00 EC FF 04 01
 (1742566711.979487)  can0  181   [7]  77 FF D6 75 FF FF 00
 (1742566711.979737)  can0  281   [6]  23 00 DA FF 03 01
 (1742566711.983344)  can0  182   [7]  C1 FE A3 7C FF FF 00
 (1742566711.983587)  can0  282   [6]  23 00 EC FF 04 01
 (1742566711.984569)  can0  181   [7]  77 FF D6 75 FF FF 00
 (1742566711.984701)  can0  281   [6]  23 00 DA FF 03 01
 (1742566711.988358)  can0  182   [7]  D1 FE A3 7C FF FF 00
 (1742566711.988639)  can0  282   [6]  23 00 EC FF 04 01
 (1742566711.989564)  can0  181   [7]  77 FF D6 75 FF FF 00
 (1742566711.989776)  can0  281   [6]  23 00 C6 FF 03 01
 (1742566711.993368)  can0  182   [7]  E0 FE A3 7C FF FF 00
 (1742566711.993599)  can0  282   [6]  23 00 EC FF 04 01
 (1742566711.994494)  can0  181   [7]  6E FF D5 75 FF FF 00
 (1742566711.994753)  can0  281   [6]  23 00 DA FF 03 01
 (1742566711.998421)  can0  182   [7]  ED FE A3 7C FF FF 00
 (1742566711.998635)  can0  282   [6]  23 00 D7 FF 04 01
 (1742566711.999566)  can0  181   [7]  6E FF D5 75 FF FF 00
 (1742566711.999692)  can0  281   [6]  23 00 DA FF 03 01
 (1742566712.003305)  can0  182   [7]  F9 FE A3 7C FF FF 00
 (1742566712.003580)  can0  282   [6]  23 00 D7 FF 04 01
 (1742566712.004497)  can0  181   [7]  6E FF D5 75 FF FF 00
 (1742566712.004692)  can0  281   [6]  23 00 DA FF 04 01
 (1742566712.008685)  can0  182   [7]  04 FF A3 7C FF FF 00
 (1742566712.008696)  can0  282   [6]  23 00 D7 FF 04 01
 (1742566712.009566)  can0  181   [7]  6E FF D5 75 FF FF 00
 (1742566712.009692)  can0  281   [6]  23 00 DA FF 03 01
 (1742566712.011991)  can0  601   [8]  2B 43 40 00 1E FE 00 00
 (1742566712.012557)  can0  581   [8]  60 43 40 00 00 00 00 00
 (1742566712.013270)  can0  182   [7]  08 FF A2 7C FF FF 00
 (1742566712.013546)  can0  282   [6]  34 00 EB FF 04 01
 (1742566712.014562)  can0  181   [7]  6E FF D5 75 FF FF 00
 (1742566712.014780)  can0  281   [6]  23 00 C6 FF 03 01
 (1742566712.018334)  can0  182   [7]  08 FF A2 7C FF FF 00
 (1742566712.018556)  can0  282   [6]  34 00 EB FF 04 01
 (1742566712.019504)  can0  181   [7]  5E FF D4 75 FF FF 00
 (1742566712.019723)  can0  281   [6]  27 00 DA FF 03 01
 (1742566712.021968)  can0  602   [8]  2B 43 40 00 E2 FE 00 00
 (1742566712.022366)  can0  582   [8]  60 43 40 00 00 00 00 00
 (1742566712.023330)  can0  182   [7]  08 FF A2 7C FF FF 00
 (1742566712.023605)  can0  282   [6]  34 00 EB FF 04 01
 (1742566712.024471)  can0  181   [7]  5E FF D4 75 FF FF 00
 (1742566712.024745)  can0  281   [6]  27 00 DA FF 04 01
 (1742566712.028378)  can0  182   [7]  08 FF A2 7C FF FF 00
 (1742566712.028563)  can0  282   [6]  34 00 EB FF 04 01
 (1742566712.029564)  can0  181   [7]  5E FF D4 75 FF FF 00
 (1742566712.029747)  can0  281   [6]  27 00 DA FF 04 01
 (1742566712.033360)  can0  182   [7]  08 FF A2 7C FF FF 00
 (1742566712.033557)  can0  282   [6]  34 00 EB FF 04 01
 (1742566712.034561)  can0  181   [7]  5E FF D4 75 FF FF 00
 (1742566712.034777)  can0  281   [6]  27 00 D9 FF 04 01
 (1742566712.038367)  can0  182   [7]  08 FF A2 7C FF FF 00
 (1742566712.038556)  can0  282   [6]  34 00 EB FF 04 01
 (1742566712.039491)  can0  181   [7]  5E FF D4 75 FF FF 00
 (1742566712.039728)  can0  281   [6]  27 00 C5 FF 04 01
 (1742566712.043341)  can0  182   [7]  08 FF A2 7C FF FF 00
 (1742566712.043556)  can0  282   [6]  34 00 D7 FF 04 01
 (1742566712.044506)  can0  181   [7]  39 FF D3 75 FF FF 00
 (1742566712.044693)  can0  281   [6]  27 00 D9 FF 03 01
 (1742566712.048398)  can0  182   [7]  03 FF A1 7C FF FF 00
 (1742566712.048572)  can0  282   [6]  3A 00 EB FF 04 01
 (1742566712.049560)  can0  181   [7]  39 FF D3 75 FF FF 00
 (1742566712.049788)  can0  281   [6]  27 00 D9 FF 03 01
 (1742566712.053307)  can0  182   [7]  03 FF A1 7C FF FF 00
 (1742566712.053638)  can0  282   [6]  3A 00 EB FF 04 01
 (1742566712.054485)  can0  181   [7]  39 FF D3 75 FF FF 00
 (1742566712.054761)  can0  281   [6]  27 00 D9 FF 03 01
 (1742566712.058371)  can0  182   [7]  03 FF A1 7C FF FF 00
 (1742566712.058633)  can0  282   [6]  3A 00 EB FF 04 01
 (1742566712.059478)  can0  181   [7]  39 FF D3 75 FF FF 00
 (1742566712.059748)  can0  281   [6]  27 00 C5 FF 04 01
 (1742566712.063349)  can0  182   [7]  03 FF A1 7C FF FF 00
 (1742566712.063638)  can0  282   [6]  3A 00 EB FF 04 01
 (1742566712.064562)  can0  181   [7]  39 FF D3 75 FF FF 00
 (1742566712.064746)  can0  281   [6]  27 00 C5 FF 04 01
 (1742566712.068388)  can0  182   [7]  03 FF A1 7C FF FF 00
 (1742566712.068665)  can0  282   [6]  3A 00 EB FF 04 01
 (1742566712.069428)  can0  181   [7]  23 FF D2 75 FF FF 00
 (1742566712.069722)  can0  281   [6]  2B 00 D9 FF 04 01
 (1742566712.073340)  can0  182   [7]  03 FF A1 7C FF FF 00
 (1742566712.073573)  can0  282   [6]  3A 00 EA FF 04 01
 (1742566712.074559)  can0  181   [7]  23 FF D2 75 FF FF 00
 (1742566712.074748)  can0  281   [6]  2B 00 D9 FF 04 01
 (1742566712.076987)  can0  601   [8]  2B 43 40 00 C7 FD 00 00
 (1742566712.077506)  can0  581   [8]  60 43 40 00 00 00 00 00
 (1742566712.078342)  can0  182   [7]  03 FF A1 7C FF FF 00
 (1742566712.078574)  can0  282   [6]  3A 00 D6 FF 04 01
 (1742566712.079493)  can0  181   [7]  23 FF D2 75 FF FF 00
 (1742566712.079783)  can0  281   [6]  2B 00 C5 FF 04 01
 (1742566712.083374)  can0  182   [7]  03 FF A1 7C FF FF 00
 (1742566712.083552)  can0  282   [6]  3A 00 D6 FF 04 01
 (1742566712.084572)  can0  181   [7]  23 FF D2 75 FF FF 00
 (1742566712.084754)  can0  281   [6]  2B 00 C5 FF 04 01
 (1742566712.086969)  can0  602   [8]  2B 43 40 00 9C FE 00 00
 (1742566712.087349)  can0  582   [8]  60 43 40 00 00 00 00 00
 (1742566712.088340)  can0  182   [7]  05 FF A1 7C FF FF 00
 (1742566712.088550)  can0  282   [6]  3A 00 D6 FF 04 01
 (1742566712.089502)  can0  181   [7]  0A FF D1 75 FF FF 00
 (1742566712.089692)  can0  281   [6]  31 00 D9 FF 04 01
 (1742566712.093348)  can0  182   [7]  0B FF A0 7C FF FF 00
 (1742566712.093645)  can0  282   [6]  3A 00 EA FF 04 01
 (1742566712.094448)  can0  181   [7]  0A FF D1 75 FF FF 00
 (1742566712.094673)  can0  281   [6]  31 00 D9 FF 04 01
 (1742566712.098380)  can0  182   [7]  0B FF A0 7C FF FF 00
 (1742566712.098573)  can0  282   [6]  3A 00 EA FF 04 01
 (1742566712.099489)  can0  181   [7]  0A FF D1 75 FF FF 00
 (1742566712.099762)  can0  281   [6]  31 00 C4 FF 03 01
 (1742566712.103323)  can0  182   [7]  0B FF A0 7C FF FF 00
 (1742566712.103597)  can0  282   [6]  3A 00 EA FF 04 01
 (1742566712.104496)  can0  181   [7]  0A FF D1 75 FF FF 00
 (1742566712.104692)  can0  281   [6]  31 00 C4 FF 03 01
 (1742566712.108274)  can0  182   [7]  0B FF A0 7C FF FF 00
 (1742566712.108496)  can0  282   [6]  3A 00 D6 FF 04 01
 (1742566712.109417)  can0  181   [7]  DF FE D0 75 FF FF 00
 (1742566712.109697)  can0  281   [6]  3A 00 D8 FF 03 01
 (1742566712.113272)  can0  182   [7]  0B FF A0 7C FF FF 00
 (1742566712.113495)  can0  282   [6]  3A 00 D6 FF 04 01
 (1742566712.114496)  can0  181   [7]  DF FE D0 75 FF FF 00
 (1742566712.114692)  can0  281   [6]  3A 00 D1 FF 03 01
 (1742566712.118297)  can0  182   [7]  0B FF A0 7C FF FF 00
 (1742566712.118571)  can0  282   [6]  3A 00 D6 FF 04 01
 (1742566712.119497)  can0  181   [7]  DF FE D0 75 FF FF 00
 (1742566712.119692)  can0  281   [6]  3A 00 C4 FF 03 01
 (1742566712.123272)  can0  182   [7]  0B FF A0 7C FF FF 00
 (1742566712.123546)  can0  282   [6]  3A 00 D6 FF 04 01
 (1742566712.124418)  can0  181   [7]  DF FE D0 75 FF FF 00
 (1742566712.124696)  can0  281   [6]  3A 00 C4 FF 03 01
 (1742566712.128297)  can0  182   [7]  02 FF 9F 7C FF FF 00
 (1742566712.128571)  can0  282   [6]  31 00 EA FF 04 01
 (1742566712.129496)  can0  181   [7]  BE FE CF 75 FF FF 00
 (1742566712.129692)  can0  281   [6]  3E 00 D8 FF 03 01
 (1742566712.133305)  can0  182   [7]  02 FF 9F 7C FF FF 00
 (1742566712.133571)  can0  282   [6]  31 00 EA FF 04 01
 (1742566712.134496)  can0  181   [7]  BE FE CF 75 FF FF 00
 (1742566712.134717)  can0  281   [6]  3E 00 C6 FF 03 01
 (1742566712.138271)  can0  182   [7]  02 FF 9F 7C FF FF 00
 (1742566712.138499)  can0  282   [6]  31 00 D5 FF 04 01
 (1742566712.139496)  can0  181   [7]  BE FE CF 75 FF FF 00
 (1742566712.139717)  can0  281   [6]  3E 00 C4 FF 03 01
 (1742566712.141923)  can0  601   [8]  2B 43 40 00 6C FD 00 00
 (1742566712.142421)  can0  581   [8]  60 43 40 00 00 00 00 00
 (1742566712.143271)  can0  182   [7]  02 FF 9F 7C FF FF 00
 (1742566712.143546)  can0  282   [6]  31 00 D5 FF 04 01
 (1742566712.144418)  can0  181   [7]  BE FE CF 75 FF FF 00
 (1742566712.144671)  can0  281   [6]  3E 00 C4 FF 03 01
 (1742566712.148297)  can0  182   [7]  02 FF 9F 7C FF FF 00
 (1742566712.148571)  can0  282   [6]  31 00 D5 FF 04 01
 (1742566712.149496)  can0  181   [7]  A2 FE CE 75 FF FF 00
 (1742566712.149692)  can0  281   [6]  42 00 D5 FF 03 01
 (1742566712.151897)  can0  602   [8]  2B 43 40 00 52 FE 00 00
 (1742566712.152318)  can0  582   [8]  60 43 40 00 00 00 00 00
 (1742566712.153296)  can0  182   [7]  02 FF 9F 7C FF FF 00
 (1742566712.153571)  can0  282   [6]  31 00 D5 FF 04 01
 (1742566712.154496)  can0  181   [7]  A2 FE CE 75 FF FF 00
 (1742566712.154692)  can0  281   [6]  42 00 C4 FF 03 01
 (1742566712.158323)  can0  182   [7]  02 FF 9F 7C FF FF 00
 (1742566712.158596)  can0  282   [6]  31 00 D5 FF 04 01
 (1742566712.159496)  can0  181   [7]  A2 FE CE 75 FF FF 00
 (1742566712.159692)  can0  281   [6]  42 00 C3 FF 03 01
 (1742566712.163272)  can0  182   [7]  FE FE 9E 7C FF FF 00
 (1742566712.163496)  can0  282   [6]  34 00 D5 FF 04 01
 (1742566712.164417)  can0  181   [7]  A2 FE CD 75 FF FF 00
 (1742566712.164696)  can0  281   [6]  42 00 C3 FF 03 01
 (1742566712.168297)  can0  182   [7]  FE FE 9E 7C FF FF 00
 (1742566712.168571)  can0  282   [6]  34 00 D5 FF 04 01
 (1742566712.169495)  can0  181   [7]  7F FE CD 75 FF FF 00
 (1742566712.169692)  can0  281   [6]  46 00 C3 FF 03 01
 (1742566712.173297)  can0  182   [7]  FE FE 9E 7C FF FF 00
 (1742566712.173571)  can0  282   [6]  34 00 D5 FF 04 01
 (1742566712.174497)  can0  181   [7]  7F FE CD 75 FF FF 00
 (1742566712.174741)  can0  281   [6]  46 00 C3 FF 03 01
