 (1742566820.834172)  can0  182   [7]  00 00 A0 17 FF FF 00
 (1742566820.834387)  can0  282   [6]  C5 00 18 00 03 01
 (1742566820.834536)  can0  181   [7]  00 00 B6 01 FF FF 00
 (1742566820.834757)  can0  281   [6]  C1 00 16 00 03 01
 (1742566820.839100)  can0  182   [7]  00 00 A0 17 FF FF 00
 (1742566820.839315)  can0  282   [6]  CE 00 18 00 03 01
 (1742566820.839540)  can0  181   [7]  00 00 B6 01 FF FF 00
 (1742566820.839764)  can0  281   [6]  C7 00 16 00 03 01
 (1742566820.844145)  can0  182   [7]  00 00 A0 17 FF FF 00
 (1742566820.844340)  can0  282   [6]  D0 00 17 00 03 01
 (1742566820.844564)  can0  181   [7]  00 00 B6 01 FF FF 00
 (1742566820.844789)  can0  281   [6]  D0 00 16 00 03 01
 (1742566820.849095)  can0  182   [7]  00 00 A0 17 FF FF 00
 (1742566820.849315)  can0  282   [6]  C7 00 17 00 03 01
 (1742566820.849540)  can0  181   [7]  00 00 B6 01 FF FF 00
 (1742566820.849765)  can0  281   [6]  CC 00 15 00 03 01
 (1742566820.854096)  can0  182   [7]  00 00 A0 17 FF FF 00
 (1742566820.854316)  can0  282   [6]  C1 00 17 00 03 01
 (1742566820.854537)  can0  181   [7]  00 00 B6 01 FF FF 00
 (1742566820.854758)  can0  281   [6]  C3 00 15 00 03 01
 (1742566820.859098)  can0  182   [7]  00 00 A0 17 FF FF 00
 (1742566820.859315)  can0  282   [6]  C3 00 18 00 03 01
 (1742566820.859540)  can0  181   [7]  00 00 B6 01 FF FF 00
 (1742566820.859790)  can0  281   [6]  C1 00 16 00 03 01
 (1742566820.864147)  can0  182   [7]  00 00 A0 17 FF FF 00
 (1742566820.864366)  can0  282   [6]  CC 00 18 00 03 01
 (1742566820.864590)  can0  181   [7]  00 00 B6 01 FF FF 00
 (1742566820.864791)  can0  281   [6]  C5 00 16 00 03 01
 (1742566820.869097)  can0  182   [7]  00 00 A0 17 FF FF 00
 (1742566820.869316)  can0  282   [6]  D0 00 17 00 03 01
 (1742566820.869541)  can0  181   [7]  00 00 B6 01 FF FF 00
 (1742566820.869765)  can0  281   [6]  CE 00 16 00 03 01
 (1742566820.874147)  can0  182   [7]  00 00 A0 17 FF FF 00
 (1742566820.874367)  can0  282   [6]  CC 00 17 00 03 01
 (1742566820.874591)  can0  181   [7]  00 00 B6 01 FF FF 00
 (1742566820.874791)  can0  281   [6]  CE 00 15 00 03 01
 (1742566820.879146)  can0  182   [7]  00 00 A0 17 FF FF 00
 (1742566820.879342)  can0  282   [6]  C3 00 17 00 03 01
 (1742566820.879591)  can0  181   [7]  00 00 B6 01 FF FF 00
 (1742566820.879790)  can0  281   [6]  C5 00 15 00 03 01
 (1742566820.884096)  can0  182   [7]  00 00 A0 17 FF FF 00
 (1742566820.884291)  can0  282   [6]  C1 00 17 00 03 01
 (1742566820.884516)  can0  181   [7]  00 00 B6 01 FF FF 00
 (1742566820.884741)  can0  281   [6]  C1 00 16 00 03 01
 (1742566820.884966)  can0  601   [8]  2B 43 40 00 00 00 00 00
 (1742566820.885546)  can0  581   [8]  60 43 40 00 00 00 00 00
 (1742566820.889096)  can0  182   [7]  00 00 A0 17 FF FF 00
 (1742566820.889316)  can0  282   [6]  C3 00 18 00 03 01
 (1742566820.889541)  can0  181   [7]  00 00 B6 01 FF FF 00
 (1742566820.889766)  can0  281   [6]  C5 00 16 00 03 01
 (1742566820.894095)  can0  182   [7]  00 00 A0 17 FF FF 00
 (1742566820.894316)  can0  282   [6]  CC 00 18 00 03 01
 (1742566820.894537)  can0  181   [7]  00 00 B6 01 FF FF 00
 (1742566820.894784)  can0  602   [8]  2B 43 40 00 00 00 00 00
 (1742566820.895006)  can0  281   [6]  CE 00 16 00 03 01
 (1742566820.895270)  can0  582   [8]  60 43 40 00 00 00 00 00
 (1742566820.899095)  can0  182   [7]  00 00 A0 17 FF FF 00
 (1742566820.899316)  can0  282   [6]  D2 00 17 00 03 01
 (1742566820.899541)  can0  181   [7]  00 00 B6 01 FF FF 00
 (1742566820.899740)  can0  281   [6]  CE 00 15 00 03 01
 (1742566820.904095)  can0  182   [7]  00 00 A0 17 FF FF 00
 (1742566820.904316)  can0  282   [6]  C9 00 17 00 03 01
 (1742566820.904541)  can0  181   [7]  00 00 B6 01 FF FF 00
 (1742566820.904766)  can0  281   [6]  C5 00 15 00 03 01
 (1742566820.909095)  can0  182   [7]  00 00 A0 17 FF FF 00
 (1742566820.909316)  can0  282   [6]  C1 00 17 00 03 01
 (1742566820.909562)  can0  181   [7]  00 00 B6 01 FF FF 00
 (1742566820.909759)  can0  281   [6]  C1 00 15 00 03 01
 (1742566820.914095)  can0  182   [7]  00 00 A0 17 FF FF 00
 (1742566820.914316)  can0  282   [6]  C1 00 18 00 03 01
 (1742566820.914541)  can0  181   [7]  00 00 B6 01 FF FF 00
 (1742566820.914766)  can0  281   [6]  C5 00 16 00 03 01
 (1742566820.919095)  can0  182   [7]  00 00 A0 17 FF FF 00
 (1742566820.919316)  can0  282   [6]  C9 00 18 00 03 01
 (1742566820.919540)  can0  181   [7]  00 00 B6 01 FF FF 00
 (1742566820.919765)  can0  281   [6]  CE 00 16 00 03 01
 (1742566820.924124)  can0  182   [7]  00 00 A0 17 FF FF 00
 (1742566820.924316)  can0  282   [6]  D0 00 17 00 03 01
 (1742566820.924540)  can0  181   [7]  00 00 B6 01 FF FF 00
 (1742566820.924765)  can0  281   [6]  D0 00 15 00 03 01
 (1742566820.929096)  can0  182   [7]  00 00 A0 17 FF FF 00
 (1742566820.929314)  can0  282   [6]  CC 00 17 00 03 01
 (1742566820.929564)  can0  181   [7]  00 00 B6 01 FF FF 00
 (1742566820.929764)  can0  281   [6]  C7 00 15 00 03 01
 (1742566820.934095)  can0  182   [7]  00 00 A0 17 FF FF 00
 (1742566820.934314)  can0  282   [6]  C3 00 17 00 03 01
 (1742566820.934539)  can0  181   [7]  00 00 B6 01 FF FF 00
 (1742566820.934763)  can0  281   [6]  C1 00 15 00 03 01
 (1742566820.939095)  can0  182   [7]  00 00 A0 17 FF FF 00
 (1742566820.939314)  can0  282   [6]  C1 00 18 00 03 01
 (1742566820.939538)  can0  181   [7]  00 00 B6 01 FF FF 00
 (1742566820.939763)  can0  281   [6]  C5 00 16 00 03 01
 (1742566820.944093)  can0  182   [7]  00 00 A0 17 FF FF 00
 (1742566820.944313)  can0  282   [6]  C7 00 18 00 03 01
 (1742566820.944559)  can0  181   [7]  00 00 B6 01 FF FF 00
 (1742566820.944781)  can0  281   [6]  CE 00 16 00 03 01
 (1742566820.949095)  can0  182   [7]  00 00 A0 17 FF FF 00
 (1742566820.949313)  can0  282   [6]  D0 00 18 00 03 01
 (1742566820.949538)  can0  181   [7]  00 00 B6 01 FF FF 00
 (1742566820.949763)  can0  281   [6]  D0 00 15 00 03 01
 (1742566820.954096)  can0  182   [7]  00 00 A0 17 FF FF 00
 (1742566820.954314)  can0  282   [6]  CE 00 17 00 03 01
 (1742566820.954539)  can0  181   [7]  00 00 B6 01 FF FF 00
 (1742566820.954764)  can0  281   [6]  C7 00 15 00 03 01
 (1742566820.959095)  can0  182   [7]  00 00 A0 17 FF FF 00
 (1742566820.959315)  can0  282   [6]  C5 00 17 00 03 01
 (1742566820.959540)  can0  181   [7]  00 00 B6 01 FF FF 00
 (1742566820.959766)  can0  602   [8]  2B 43 40 00 00 00 00 00
 (1742566820.959986)  can0  281   [6]  C1 00 15 00 03 01
 (1742566820.960269)  can0  582   [8]  60 43 40 00 00 00 00 00
 (1742566820.964095)  can0  182   [7]  00 00 A0 17 FF FF 00
 (1742566820.964315)  can0  282   [6]  C1 00 18 00 03 01
 (1742566820.964540)  can0  181   [7]  00 00 B6 01 FF FF 00
 (1742566820.964765)  can0  281   [6]  C3 00 16 00 03 01
 (1742566820.969095)  can0  182   [7]  00 00 A0 17 FF FF 00
 (1742566820.969315)  can0  282   [6]  C5 00 18 00 03 01
 (1742566820.969540)  can0  181   [7]  00 00 B6 01 FF FF 00
 (1742566820.969765)  can0  281   [6]  CC 00 16 00 03 01
 (1742566820.974094)  can0  182   [7]  00 00 A0 17 FF FF 00
 (1742566820.974315)  can0  282   [6]  CE 00 18 00 03 01
 (1742566820.974540)  can0  181   [7]  00 00 B6 01 FF FF 00
 (1742566820.974765)  can0  281   [6]  D0 00 15 00 03 01
 (1742566820.979094)  can0  182   [7]  00 00 A0 17 FF FF 00
 (1742566820.979315)  can0  282   [6]  CE 00 17 00 03 01
 (1742566820.979540)  can0  181   [7]  00 00 B6 01 FF FF 00
 (1742566820.979765)  can0  281   [6]  C9 00 15 00 03 01
 (1742566820.984146)  can0  182   [7]  00 00 A0 17 FF FF 00
 (1742566820.984599)  can0  282   [6]  C5 00 17 00 03 01
 (1742566820.984621)  can0  181   [7]  00 00 B6 01 FF FF 00
 (1742566820.984865)  can0  281   [6]  C1 00 15 00 03 01
 (1742566820.989160)  can0  182   [7]  00 00 A0 17 FF FF 00
 (1742566820.989410)  can0  282   [6]  C1 00 17 00 03 01
 (1742566820.989623)  can0  181   [7]  00 00 B6 01 FF FF 00
 (1742566820.989832)  can0  281   [6]  C1 00 16 00 03 01
 (1742566820.994157)  can0  182   [7]  00 00 A0 17 FF FF 00
 (1742566820.994414)  can0  282   [6]  C5 00 18 00 03 01
 (1742566820.994631)  can0  181   [7]  00 00 B6 01 FF FF 00
 (1742566820.994843)  can0  281   [6]  C9 00 16 00 03 01
 (1742566820.999167)  can0  182   [7]  00 00 A0 17 FF FF 00
 (1742566820.999413)  can0  282   [6]  CE 00 18 00 03 01
 (1742566820.999561)  can0  181   [7]  00 00 B6 01 FF FF 00
 (1742566820.999826)  can0  281   [6]  D0 00 15 00 03 01
 (1742566821.004158)  can0  182   [7]  00 00 A0 17 FF FF 00
 (1742566821.004290)  can0  282   [6]  D0 00 17 00 03 01
 (1742566821.004578)  can0  181   [7]  00 00 B6 01 FF FF 00
 (1742566821.004804)  can0  281   [6]  CC 00 15 00 03 01
 (1742566821.009167)  can0  182   [7]  00 00 A0 17 FF FF 00
 (1742566821.009381)  can0  282   [6]  C7 00 17 00 03 01
 (1742566821.009610)  can0  181   [7]  00 00 B6 01 FF FF 00
 (1742566821.009835)  can0  281   [6]  C3 00 15 00 03 01
 (1742566821.014156)  can0  182   [7]  00 00 A0 17 FF FF 00
 (1742566821.014425)  can0  282   [6]  C1 00 17 00 03 01
 (1742566821.014540)  can0  181   [7]  00 00 B6 01 FF FF 00
 (1742566821.014938)  can0  281   [6]  C3 00 16 00 03 01
 (1742566821.015005)  can0  601   [8]  2B 43 40 00 00 00 00 00
 (1742566821.015584)  can0  581   [8]  60 43 40 00 00 00 00 00
 (1742566821.019160)  can0  182   [7]  00 00 A0 17 FF FF 00
 (1742566821.019394)  can0  282   [6]  C3 00 18 00 03 01
 (1742566821.019610)  can0  181   [7]  00 00 B6 01 FF FF 00
 (1742566821.019836)  can0  281   [6]  CC 00 16 00 03 01
 (1742566821.024167)  can0  182   [7]  00 00 A0 17 FF FF 00
 (1742566821.024341)  can0  282   [6]  CC 00 18 00 03 01
 (1742566821.024608)  can0  181   [7]  00 00 B6 01 FF FF 00
 (1742566821.024831)  can0  602   [8]  2B 43 40 00 00 00 00 00
 (1742566821.025054)  can0  281   [6]  D0 00 15 00 03 01
 (1742566821.025305)  can0  582   [8]  60 43 40 00 00 00 00 00
 (1742566821.029156)  can0  182   [7]  00 00 A0 17 FF FF 00
 (1742566821.029412)  can0  282   [6]  D0 00 17 00 03 01
 (1742566821.029623)  can0  181   [7]  00 00 B6 01 FF FF 00
 (1742566821.029759)  can0  281   [6]  C9 00 15 00 03 01
 (1742566821.034156)  can0  182   [7]  00 00 A0 17 FF FF 00
 (1742566821.034415)  can0  282   [6]  C9 00 17 00 03 01
 (1742566821.034628)  can0  181   [7]  00 00 B6 01 FF FF 00
 (1742566821.034841)  can0  281   [6]  C1 00 15 00 03 01
 (1742566821.039166)  can0  182   [7]  00 00 A0 17 FF FF 00
 (1742566821.039412)  can0  282   [6]  C1 00 17 00 03 01
 (1742566821.039623)  can0  181   [7]  00 00 B6 01 FF FF 00
 (1742566821.039844)  can0  281   [6]  C1 00 16 00 03 01
 (1742566821.044160)  can0  182   [7]  00 00 A0 17 FF FF 00
 (1742566821.044404)  can0  282   [6]  C1 00 18 00 03 01
 (1742566821.044641)  can0  181   [7]  00 00 B6 01 FF FF 00
 (1742566821.044855)  can0  281   [6]  C9 00 16 00 03 01
 (1742566821.049160)  can0  182   [7]  00 00 A0 17 FF FF 00
 (1742566821.049423)  can0  282   [6]  C9 00 18 00 03 01
 (1742566821.049562)  can0  181   [7]  00 00 B6 01 FF FF 00
 (1742566821.049835)  can0  281   [6]  D0 00 15 00 03 01
 (1742566821.054155)  can0  182   [7]  00 00 A0 17 FF FF 00
 (1742566821.054341)  can0  282   [6]  D0 00 17 00 03 01
 (1742566821.054609)  can0  181   [7]  00 00 B6 01 FF FF 00
 (1742566821.054839)  can0  281   [6]  CC 00 15 00 03 01
 (1742566821.059187)  can0  182   [7]  00 00 A0 17 FF FF 00
 (1742566821.059340)  can0  282   [6]  CC 00 17 00 03 01
 (1742566821.059626)  can0  181   [7]  00 00 B6 01 FF FF 00
 (1742566821.059874)  can0  281   [6]  C3 00 15 00 03 01
 (1742566821.064163)  can0  182   [7]  00 00 A0 17 FF FF 00
 (1742566821.064425)  can0  282   [6]  C3 00 17 00 03 01
 (1742566821.064562)  can0  181   [7]  00 00 B6 01 FF FF 00
 (1742566821.064847)  can0  281   [6]  C1 00 16 00 03 01
 (1742566821.069169)  can0  182   [7]  00 00 A0 17 FF FF 00
 (1742566821.069340)  can0  282   [6]  C1 00 18 00 03 01
 (1742566821.069592)  can0  181   [7]  00 00 B6 01 FF FF 00
 (1742566821.069845)  can0  281   [6]  C7 00 16 00 03 01
 (1742566821.074183)  can0  182   [7]  00 00 A0 17 FF FF 00
 (1742566821.074391)  can0  282   [6]  C7 00 18 00 03 01
 (1742566821.074631)  can0  181   [7]  00 00 B6 01 FF FF 00
 (1742566821.074818)  can0  281   [6]  D0 00 16 00 03 01
 (1742566821.079188)  can0  182   [7]  00 00 A0 17 FF FF 00
 (1742566821.079398)  can0  282   [6]  D0 00 18 00 03 01
 (1742566821.079607)  can0  181   [7]  00 00 B6 01 FF FF 00
 (1742566821.079899)  can0  281   [6]  CC 00 15 00 03 01
 (1742566821.080047)  can0  601   [8]  2B 43 40 00 00 00 00 00
 (1742566821.080611)  can0  581   [8]  60 43 40 00 00 00 00 00
 (1742566821.084184)  can0  182   [7]  00 00 A0 17 FF FF 00
 (1742566821.084373)  can0  282   [6]  CC 00 17 00 03 01
 (1742566821.084635)  can0  181   [7]  00 00 B6 01 FF FF 00
 (1742566821.084808)  can0  281   [6]  C3 00 15 00 03 01
 (1742566821.089199)  can0  182   [7]  00 00 A0 17 FF FF 00
 (1742566821.089349)  can0  282   [6]  C5 00 17 00 03 01
 (1742566821.089617)  can0  181   [7]  00 00 B6 01 FF FF 00
 (1742566821.089795)  can0  602   [8]  2B 43 40 00 00 00 00 00
 (1742566821.090005)  can0  281   [6]  C1 00 16 00 03 01
 (1742566821.090352)  can0  582   [8]  60 43 40 00 00 00 00 00
 (1742566821.094102)  can0  182   [7]  00 00 A0 17 FF FF 00
 (1742566821.094388)  can0  282   [6]  C1 00 18 00 03 01
 (1742566821.094603)  can0  181   [7]  00 00 B6 01 FF FF 00
 (1742566821.094800)  can0  281   [6]  C7 00 16 00 03 01
 (1742566821.099192)  can0  182   [7]  00 00 A0 17 FF FF 00
 (1742566821.099374)  can0  282   [6]  C5 00 18 00 03 01
 (1742566821.099624)  can0  181   [7]  00 00 B6 01 FF FF 00
 (1742566821.099847)  can0  281   [6]  D0 00 16 00 03 01
 (1742566821.104174)  can0  182   [7]  00 00 A0 17 FF FF 00
 (1742566821.104377)  can0  282   [6]  CE 00 18 00 03 01
 (1742566821.104593)  can0  181   [7]  00 00 B6 01 FF FF 00
 (1742566821.104836)  can0  281   [6]  CC 00 15 00 03 01
 (1742566821.109183)  can0  182   [7]  00 00 A0 17 FF FF 00
 (1742566821.109366)  can0  282   [6]  CE 00 17 00 03 01
 (1742566821.109601)  can0  181   [7]  00 00 B6 01 FF FF 00
 (1742566821.109772)  can0  281   [6]  C3 00 15 00 03 01
 (1742566821.114104)  can0  182   [7]  00 00 A0 17 FF FF 00
 (1742566821.114315)  can0  282   [6]  C5 00 17 00 03 01
 (1742566821.114627)  can0  181   [7]  00 00 B6 01 FF FF 00
 (1742566821.114821)  can0  281   [6]  C1 00 16 00 03 01
 (1742566821.119169)  can0  182   [7]  00 00 A0 17 FF FF 00
 (1742566821.119362)  can0  282   [6]  C1 00 17 00 03 01
 (1742566821.119570)  can0  181   [7]  00 00 B6 01 FF FF 00
 (1742566821.119803)  can0  281   [6]  C7 00 16 00 03 01
 (1742566821.124155)  can0  182   [7]  00 00 A0 17 FF FF 00
 (1742566821.124365)  can0  282   [6]  C5 00 18 00 03 01
 (1742566821.124602)  can0  181   [7]  00 00 B6 01 FF FF 00
 (1742566821.124794)  can0  281   [6]  D0 00 15 00 03 01
 (1742566821.129168)  can0  182   [7]  00 00 A0 17 FF FF 00
 (1742566821.129368)  can0  282   [6]  CE 00 18 00 03 01
 (1742566821.129610)  can0  181   [7]  00 00 B6 01 FF FF 00
 (1742566821.129793)  can0  281   [6]  CC 00 15 00 03 01
 (1742566821.134097)  can0  182   [7]  00 00 A0 17 FF FF 00
 (1742566821.134315)  can0  282   [6]  D0 00 17 00 03 01
 (1742566821.134540)  can0  181   [7]  00 00 B6 01 FF FF 00
 (1742566821.134740)  can0  281   [6]  C3 00 15 00 03 01
 (1742566821.139095)  can0  182   [7]  00 00 A0 17 FF FF 00
 (1742566821.139315)  can0  282   [6]  C7 00 17 00 03 01
 (1742566821.139568)  can0  181   [7]  00 00 B6 01 FF FF 00
 (1742566821.139765)  can0  281   [6]  C3 00 16 00 03 01
 (1742566821.144094)  can0  182   [7]  00 00 A0 17 FF FF 00
 (1742566821.144315)  can0  282   [6]  C1 00 17 00 03 01
 (1742566821.144536)  can0  181   [7]  00 00 B6 01 FF FF 00
 (1742566821.144757)  can0  281   [6]  C9 00 16 00 03 01
 (1742566821.144980)  can0  601   [8]  2B 43 40 00 8E 01 00 00
 (1742566821.145520)  can0  581   [8]  60 43 40 00 00 00 00 00
 (1742566821.149094)  can0  182   [7]  00 00 A0 17 FF FF 00
 (1742566821.149315)  can0  282   [6]  C3 00 18 00 03 01
 (1742566821.149540)  can0  181   [7]  00 00 B6 01 FF FF 00
 (1742566821.149765)  can0  281   [6]  8D 00 08 00 03 01
 (1742566821.154145)  can0  182   [7]  00 00 A0 17 FF FF 00
 (1742566821.154341)  can0  282   [6]  CC 00 18 00 03 01
 (1742566821.154565)  can0  181   [7]  00 00 B6 01 FF FF 00
 (1742566821.154789)  can0  281   [6]  1D 00 11 00 03 01
 (1742566821.155093)  can0  602   [8]  2B 43 40 00 8E 01 00 00
 (1742566821.156094)  can0  582   [8]  60 43 40 00 00 00 00 00
 (1742566821.159144)  can0  182   [7]  00 00 A0 17 FF FF 00
 (1742566821.159366)  can0  282   [6]  AC 00 06 00 03 01
 (1742566821.159590)  can0  181   [7]  00 00 B6 01 FF FF 00
 (1742566821.159789)  can0  281   [6]  21 00 14 00 03 01
 (1742566821.164094)  can0  182   [7]  00 00 A0 17 FF FF 00
 (1742566821.164314)  can0  282   [6]  3A 00 0F 00 03 01
 (1742566821.164539)  can0  181   [7]  00 00 B6 01 FF FF 00
 (1742566821.164764)  can0  281   [6]  25 00 14 00 03 01
 (1742566821.169094)  can0  182   [7]  00 00 A0 17 FF FF 00
 (1742566821.169315)  can0  282   [6]  10 00 14 00 03 01
 (1742566821.169536)  can0  181   [7]  00 00 B6 01 FF FF 00
 (1742566821.169758)  can0  281   [6]  14 00 14 00 03 01
 (1742566821.174096)  can0  182   [7]  00 00 A0 17 FF FF 00
 (1742566821.174315)  can0  282   [6]  1F 00 14 00 03 01
 (1742566821.174540)  can0  181   [7]  00 00 B6 01 FF FF 00
 (1742566821.174764)  can0  281   [6]  16 00 14 00 03 01
 (1742566821.179094)  can0  182   [7]  00 00 A0 17 FF FF 00
 (1742566821.179315)  can0  282   [6]  10 00 14 00 03 01
 (1742566821.179539)  can0  181   [7]  00 00 B6 01 FF FF 00
 (1742566821.179739)  can0  281   [6]  1D 00 14 00 03 01
 (1742566821.184094)  can0  182   [7]  00 00 A0 17 FF FF 00
 (1742566821.184315)  can0  282   [6]  0A 00 14 00 04 01
 (1742566821.184540)  can0  181   [7]  00 00 B6 01 FF FF 00
 (1742566821.184764)  can0  281   [6]  21 00 14 00 03 01
 (1742566821.189094)  can0  182   [7]  00 00 A0 17 FF FF 00
 (1742566821.189315)  can0  282   [6]  0A 00 14 00 04 01
 (1742566821.189536)  can0  181   [7]  00 00 B6 01 FF FF 00
 (1742566821.189783)  can0  281   [6]  23 00 14 00 03 01
 (1742566821.194093)  can0  182   [7]  00 00 A0 17 FF FF 00
 (1742566821.194314)  can0  282   [6]  0A 00 14 00 04 01
 (1742566821.194536)  can0  181   [7]  00 00 B7 01 FF FF 00
 (1742566821.194732)  can0  281   [6]  1F 00 00 00 03 01
 (1742566821.199094)  can0  182   [7]  00 00 A0 17 FF FF 00
 (1742566821.199314)  can0  282   [6]  08 00 14 00 04 01
 (1742566821.199539)  can0  181   [7]  00 00 B7 01 FF FF 00
 (1742566821.199764)  can0  281   [6]  0C 00 00 00 03 01
 (1742566821.204094)  can0  182   [7]  00 00 A0 17 FF FF 00
 (1742566821.204314)  can0  282   [6]  06 00 14 00 04 01
 (1742566821.204539)  can0  181   [7]  00 00 B7 01 FF FF 00
 (1742566821.204764)  can0  281   [6]  00 00 00 00 03 01
 (1742566821.209094)  can0  182   [7]  00 00 A1 17 FF FF 00
 (1742566821.209315)  can0  282   [6]  02 00 00 00 04 01
 (1742566821.209539)  can0  181   [7]  00 00 B7 01 FF FF 00
 (1742566821.209764)  can0  281   [6]  00 00 00 00 03 01
 (1742566821.209989)  can0  601   [8]  2B 43 40 00 8E 01 00 00
 (1742566821.210519)  can0  581   [8]  60 43 40 00 00 00 00 00
 (1742566821.214099)  can0  182   [7]  00 00 A1 17 FF FF 00
 (1742566821.214315)  can0  282   [6]  00 00 00 00 04 01
 (1742566821.214539)  can0  181   [7]  00 00 B7 01 FF FF 00
 (1742566821.214764)  can0  281   [6]  00 00 00 00 03 01
 (1742566821.219093)  can0  182   [7]  00 00 A1 17 FF FF 00
 (1742566821.219320)  can0  282   [6]  00 00 00 00 04 01
 (1742566821.219539)  can0  181   [7]  40 FE B6 01 FF FF 00
 (1742566821.219764)  can0  281   [6]  00 00 14 00 03 01
 (1742566821.219989)  can0  602   [8]  2B 43 40 00 8E 01 00 00
 (1742566821.221094)  can0  582   [8]  60 43 40 00 00 00 00 00
 (1742566821.224094)  can0  182   [7]  00 00 A1 17 FF FF 00
 (1742566821.224314)  can0  282   [6]  00 00 00 00 04 01
 (1742566821.224540)  can0  181   [7]  40 FE B6 01 FF FF 00
 (1742566821.224739)  can0  281   [6]  00 00 28 00 03 01
 (1742566821.229094)  can0  182   [7]  00 00 A1 17 FF FF 00
 (1742566821.229289)  can0  282   [6]  00 00 00 00 03 01
 (1742566821.229510)  can0  181   [7]  C0 01 B7 01 FF FF 00
 (1742566821.229732)  can0  281   [6]  00 00 29 00 04 01
 (1742566821.234097)  can0  182   [7]  00 00 A1 17 FF FF 00
 (1742566821.234289)  can0  282   [6]  04 00 14 00 03 01
 (1742566821.234510)  can0  181   [7]  1F 02 B7 01 FF FF 00
 (1742566821.234732)  can0  281   [6]  6A 00 15 00 03 01
 (1742566821.239095)  can0  182   [7]  00 00 A1 17 FF FF 00
 (1742566821.239314)  can0  282   [6]  25 00 14 00 03 01
 (1742566821.239540)  can0  181   [7]  1F 02 B7 01 FF FF 00
 (1742566821.239764)  can0  281   [6]  6A 00 15 00 03 01
 (1742566821.244094)  can0  182   [7]  00 00 A1 17 FF FF 00
 (1742566821.244289)  can0  282   [6]  29 00 14 00 04 01
 (1742566821.244514)  can0  181   [7]  1F 02 B7 01 FF FF 00
 (1742566821.244714)  can0  281   [6]  6A 00 15 00 03 01
 (1742566821.249094)  can0  182   [7]  00 00 A1 17 FF FF 00
 (1742566821.249289)  can0  282   [6]  1D 00 14 00 03 01
 (1742566821.249510)  can0  181   [7]  17 02 B7 01 FF FF 00
 (1742566821.249732)  can0  281   [6]  6A 00 15 00 03 01
 (1742566821.254094)  can0  182   [7]  00 00 A1 17 FF FF 00
 (1742566821.254314)  can0  282   [6]  29 00 14 00 03 01
 (1742566821.254514)  can0  181   [7]  EB 01 B7 01 FF FF 00
 (1742566821.254739)  can0  281   [6]  6A 00 29 00 03 01
 (1742566821.259094)  can0  182   [7]  00 00 A1 17 FF FF 00
 (1742566821.259314)  can0  282   [6]  36 00 14 00 03 01
 (1742566821.259535)  can0  181   [7]  C6 01 B7 01 FF FF 00
 (1742566821.259732)  can0  281   [6]  6A 00 29 00 03 01
 (1742566821.264094)  can0  182   [7]  00 00 A1 17 FF FF 00
 (1742566821.264314)  can0  282   [6]  3E 00 28 00 03 01
 (1742566821.264539)  can0  181   [7]  A6 01 B7 01 FF FF 00
 (1742566821.264739)  can0  281   [6]  6A 00 29 00 03 01
 (1742566821.269094)  can0  182   [7]  00 00 A1 17 FF FF 00
 (1742566821.269314)  can0  282   [6]  6C 00 28 00 03 01
 (1742566821.269514)  can0  181   [7]  8A 01 B7 01 FF FF 00
 (1742566821.269739)  can0  281   [6]  6A 00 29 00 03 01
 (1742566821.274094)  can0  182   [7]  00 00 A1 17 FF FF 00
 (1742566821.274314)  can0  282   [6]  72 00 29 00 03 01
 (1742566821.274535)  can0  181   [7]  80 01 B8 01 FF FF 00
 (1742566821.274732)  can0  281   [6]  51 00 15 00 03 01
 (1742566821.274954)  can0  601   [8]  2B 43 40 00 8E 01 00 00
 (1742566821.275495)  can0  581   [8]  60 43 40 00 00 00 00 00
 (1742566821.279094)  can0  182   [7]  00 00 A1 17 FF FF 00
 (1742566821.279314)  can0  282   [6]  55 00 29 00 03 01
 (1742566821.279539)  can0  181   [7]  80 01 B8 01 FF FF 00
 (1742566821.279771)  can0  281   [6]  51 00 29 00 03 01
 (1742566821.284094)  can0  182   [7]  81 00 A2 17 FF FF 00
 (1742566821.284296)  can0  282   [6]  5B 00 15 00 03 01
 (1742566821.284510)  can0  181   [7]  80 01 B8 01 FF FF 00
 (1742566821.284732)  can0  281   [6]  51 00 29 00 03 01
 (1742566821.284954)  can0  602   [8]  2B 43 40 00 8E 01 00 00
 (1742566821.286094)  can0  582   [8]  60 43 40 00 00 00 00 00
 (1742566821.289093)  can0  182   [7]  81 00 A2 17 FF FF 00
 (1742566821.289314)  can0  282   [6]  5B 00 26 00 03 01
 (1742566821.289539)  can0  181   [7]  80 01 B8 01 FF FF 00
 (1742566821.289764)  can0  281   [6]  51 00 29 00 03 01
 (1742566821.294094)  can0  182   [7]  81 00 A2 17 FF FF 00
 (1742566821.294314)  can0  282   [6]  5B 00 29 00 03 01
 (1742566821.294539)  can0  181   [7]  80 01 B8 01 FF FF 00
 (1742566821.294764)  can0  281   [6]  51 00 2A 00 03 01
 (1742566821.299094)  can0  182   [7]  81 00 A2 17 FF FF 00
 (1742566821.299314)  can0  282   [6]  5B 00 29 00 03 01
 (1742566821.299539)  can0  181   [7]  79 01 B8 01 FF FF 00
 (1742566821.299739)  can0  281   [6]  51 00 2A 00 03 01
 (1742566821.304093)  can0  182   [7]  81 00 A2 17 FF FF 00
 (1742566821.304314)  can0  282   [6]  5B 00 29 00 03 01
 (1742566821.304539)  can0  181   [7]  71 01 B9 01 FF FF 00
 (1742566821.304739)  can0  281   [6]  40 00 1A 00 03 01
 (1742566821.309094)  can0  182   [7]  81 00 A2 17 FF FF 00
 (1742566821.309316)  can0  282   [6]  5B 00 29 00 03 01
 (1742566821.309536)  can0  181   [7]  71 01 B9 01 FF FF 00
 (1742566821.309732)  can0  281   [6]  40 00 2A 00 03 01
 (1742566821.314093)  can0  182   [7]  BB 00 A3 17 FF FF 00
 (1742566821.314314)  can0  282   [6]  3C 00 17 00 03 01
 (1742566821.314539)  can0  181   [7]  71 01 B9 01 FF FF 00
 (1742566821.314739)  can0  281   [6]  40 00 2A 00 03 01
 (1742566821.319094)  can0  182   [7]  BB 00 A3 17 FF FF 00
 (1742566821.319314)  can0  282   [6]  3C 00 28 00 04 01
 (1742566821.319535)  can0  181   [7]  71 01 B9 01 FF FF 00
 (1742566821.319732)  can0  281   [6]  40 00 2A 00 04 01
 (1742566821.324094)  can0  182   [7]  BB 00 A3 17 FF FF 00
 (1742566821.324314)  can0  282   [6]  3C 00 29 00 04 01
 (1742566821.324539)  can0  181   [7]  71 01 B9 01 FF FF 00
 (1742566821.324739)  can0  281   [6]  40 00 2A 00 04 01
 (1742566821.329093)  can0  182   [7]  BB 00 A3 17 FF FF 00
 (1742566821.329314)  can0  282   [6]  3C 00 2A 00 03 01
 (1742566821.329539)  can0  181   [7]  6F 01 BA 01 FF FF 00
 (1742566821.329764)  can0  281   [6]  40 00 3E 00 04 01
 (1742566821.334093)  can0  182   [7]  BB 00 A3 17 FF FF 00
 (1742566821.334314)  can0  282   [6]  3C 00 2A 00 03 01
 (1742566821.334544)  can0  181   [7]  6C 01 BA 01 FF FF 00
 (1742566821.334739)  can0  281   [6]  3A 00 2A 00 04 01
 (1742566821.339093)  can0  182   [7]  BB 00 A3 17 FF FF 00
 (1742566821.339315)  can0  282   [6]  3C 00 3E 00 03 01
 (1742566821.339535)  can0  181   [7]  6C 01 BA 01 FF FF 00
 (1742566821.339732)  can0  281   [6]  3A 00 2A 00 04 01
 (1742566821.339954)  can0  601   [8]  2B 43 40 00 00 00 00 00
 (1742566821.340469)  can0  581   [8]  60 43 40 00 00 00 00 00
 (1742566821.344094)  can0  182   [7]  DC 00 A4 17 FF FF 00
 (1742566821.344314)  can0  282   [6]  38 00 2A 00 03 01
 (1742566821.344539)  can0  181   [7]  6C 01 BA 01 FF FF 00
 (1742566821.344738)  can0  281   [6]  3A 00 2B 00 04 01
 (1742566821.349093)  can0  182   [7]  DC 00 A4 17 FF FF 00
 (1742566821.349314)  can0  282   [6]  38 00 2A 00 03 01
 (1742566821.349560)  can0  181   [7]  6C 01 BA 01 FF FF 00
 (1742566821.349782)  can0  602   [8]  2B 43 40 00 00 00 00 00
 (1742566821.350003)  can0  281   [6]  3A 00 2B 00 04 01
 (1742566821.350268)  can0  582   [8]  60 43 40 00 00 00 00 00
 (1742566821.354093)  can0  182   [7]  DC 00 A4 17 FF FF 00
 (1742566821.354314)  can0  282   [6]  38 00 2A 00 03 01
 (1742566821.354539)  can0  181   [7]  6C 01 BA 01 FF FF 00
 (1742566821.354739)  can0  281   [6]  3A 00 3F 00 04 01
 (1742566821.359093)  can0  182   [7]  DC 00 A4 17 FF FF 00
 (1742566821.359314)  can0  282   [6]  38 00 2A 00 03 01
 (1742566821.359539)  can0  181   [7]  6E 01 BB 01 FF FF 00
 (1742566821.359764)  can0  281   [6]  34 00 2B 00 04 01
 (1742566821.364094)  can0  182   [7]  DC 00 A4 17 FF FF 00
 (1742566821.364314)  can0  282   [6]  38 00 2A 00 03 01
 (1742566821.364539)  can0  181   [7]  6E 01 BB 01 FF FF 00
 (1742566821.364739)  can0  281   [6]  34 00 2B 00 03 01
 (1742566821.369093)  can0  182   [7]  F7 00 A5 17 FF FF 00
 (1742566821.369313)  can0  282   [6]  38 00 2A 00 03 01
 (1742566821.369539)  can0  181   [7]  6E 01 BB 01 FF FF 00
 (1742566821.369739)  can0  281   [6]  34 00 2B 00 03 01
 (1742566821.374093)  can0  182   [7]  F7 00 A5 17 FF FF 00
 (1742566821.374289)  can0  282   [6]  38 00 2B 00 03 01
 (1742566821.374514)  can0  181   [7]  6E 01 BB 01 FF FF 00
 (1742566821.374714)  can0  281   [6]  34 00 2B 00 03 01
 (1742566821.379094)  can0  182   [7]  F7 00 A5 17 FF FF 00
 (1742566821.379314)  can0  282   [6]  38 00 2B 00 03 01
 (1742566821.379539)  can0  181   [7]  6E 01 BB 01 FF FF 00
 (1742566821.379764)  can0  281   [6]  34 00 2B 00 03 01
 (1742566821.384093)  can0  182   [7]  F7 00 A5 17 FF FF 00
 (1742566821.384314)  can0  282   [6]  38 00 2B 00 04 01
 (1742566821.384539)  can0  181   [7]  72 01 BC 01 FF FF 00
 (1742566821.384738)  can0  281   [6]  2F 00 17 00 03 01
 (1742566821.389093)  can0  182   [7]  F7 00 A5 17 FF FF 00
 (1742566821.389289)  can0  282   [6]  38 00 2B 00 03 01
 (1742566821.389514)  can0  181   [7]  72 01 BC 01 FF FF 00
 (1742566821.389739)  can0  281   [6]  2F 00 2B 00 03 01
 (1742566821.394093)  can0  182   [7]  F7 00 A5 17 FF FF 00
 (1742566821.394314)  can0  282   [6]  38 00 2B 00 03 01
 (1742566821.394538)  can0  181   [7]  72 01 BC 01 FF FF 00
 (1742566821.394763)  can0  281   [6]  2F 00 2C 00 03 01
 (1742566821.399094)  can0  182   [7]  06 01 A6 17 FF FF 00
 (1742566821.399313)  can0  282   [6]  34 00 17 00 03 01
 (1742566821.399538)  can0  181   [7]  72 01 BC 01 FF FF 00
 (1742566821.399738)  can0  281   [6]  2F 00 2C 00 03 01
 (1742566821.404093)  can0  182   [7]  06 01 A6 17 FF FF 00
 (1742566821.404313)  can0  282   [6]  34 00 2B 00 03 01
 (1742566821.404534)  can0  181   [7]  72 01 BC 01 FF FF 00
 (1742566821.404756)  can0  281   [6]  2F 00 2C 00 03 01
 (1742566821.404978)  can0  601   [8]  2B 43 40 00 00 00 00 00
 (1742566821.405518)  can0  581   [8]  60 43 40 00 00 00 00 00
 (1742566821.409093)  can0  182   [7]  06 01 A6 17 FF FF 00
 (1742566821.409313)  can0  282   [6]  34 00 2B 00 03 01
 (1742566821.409538)  can0  181   [7]  72 01 BD 01 FF FF 00
 (1742566821.409739)  can0  281   [6]  2F 00 2C 00 03 01
 (1742566821.414092)  can0  182   [7]  06 01 A6 17 FF FF 00
 (1742566821.414314)  can0  282   [6]  34 00 2B 00 03 01
 (1742566821.414538)  can0  181   [7]  71 01 BD 01 FF FF 00
 (1742566821.414738)  can0  281   [6]  2B 00 18 00 03 01
 (1742566821.414960)  can0  602   [8]  2B 43 40 00 00 00 00 00
 (1742566821.416093)  can0  582   [8]  60 43 40 00 00 00 00 00
 (1742566821.419093)  can0  182   [7]  06 01 A6 17 FF FF 00
 (1742566821.419314)  can0  282   [6]  34 00 2B 00 03 01
 (1742566821.419539)  can0  181   [7]  71 01 BD 01 FF FF 00
 (1742566821.419738)  can0  281   [6]  2B 00 18 00 03 01
 (1742566821.424093)  can0  182   [7]  16 01 A7 17 FF FF 00
 (1742566821.424313)  can0  282   [6]  2F 00 17 00 03 01
 (1742566821.424538)  can0  181   [7]  71 01 BD 01 FF FF 00
 (1742566821.424739)  can0  281   [6]  2B 00 18 00 03 01
 (1742566821.429095)  can0  182   [7]  16 01 A7 17 FF FF 00
 (1742566821.429312)  can0  282   [6]  2F 00 18 00 03 01
 (1742566821.429539)  can0  181   [7]  71 01 BD 01 FF FF 00
 (1742566821.429738)  can0  281   [6]  2B 00 18 00 03 01
 (1742566821.434094)  can0  182   [7]  16 01 A7 17 FF FF 00
 (1742566821.434313)  can0  282   [6]  2F 00 18 00 04 01
 (1742566821.434538)  can0  181   [7]  71 01 BD 01 FF FF 00
 (1742566821.434738)  can0  281   [6]  2B 00 18 00 03 01
 (1742566821.439093)  can0  182   [7]  16 01 A7 17 FF FF 00
 (1742566821.439314)  can0  282   [6]  2F 00 18 00 04 01
 (1742566821.439539)  can0  181   [7]  6D 01 BD 01 FF FF 00
 (1742566821.439738)  can0  281   [6]  2B 00 18 00 03 01
 (1742566821.444093)  can0  182   [7]  16 01 A7 17 FF FF 00
 (1742566821.444313)  can0  282   [6]  2F 00 18 00 04 01
 (1742566821.444538)  can0  181   [7]  66 01 BD 01 FF FF 00
 (1742566821.444738)  can0  281   [6]  2B 00 18 00 03 01
 (1742566821.449093)  can0  182   [7]  16 01 A7 17 FF FF 00
 (1742566821.449313)  can0  282   [6]  2F 00 18 00 04 01
 (1742566821.449535)  can0  181   [7]  5F 01 BD 01 FF FF 00
 (1742566821.449731)  can0  281   [6]  2B 00 18 00 03 01
 (1742566821.454093)  can0  182   [7]  16 01 A7 17 FF FF 00
 (1742566821.454313)  can0  282   [6]  2F 00 18 00 04 01
 (1742566821.454534)  can0  181   [7]  58 01 BE 01 FF FF 00
 (1742566821.454756)  can0  281   [6]  2B 00 14 00 03 01
 (1742566821.459093)  can0  182   [7]  13 01 A7 17 FF FF 00
 (1742566821.459288)  can0  282   [6]  2F 00 18 00 04 01
 (1742566821.459513)  can0  181   [7]  57 01 BE 01 FF FF 00
 (1742566821.459742)  can0  281   [6]  00 00 01 00 03 01
 (1742566821.464093)  can0  182   [7]  0E 01 A7 17 FF FF 00
 (1742566821.464313)  can0  282   [6]  2F 00 14 00 04 01
 (1742566821.464539)  can0  181   [7]  57 01 BE 01 FF FF 00
 (1742566821.464738)  can0  281   [6]  00 00 05 00 03 01
 (1742566821.469092)  can0  182   [7]  09 01 A7 17 FF FF 00
 (1742566821.469288)  can0  282   [6]  2F 00 14 00 04 01
 (1742566821.469513)  can0  181   [7]  57 01 BE 01 FF FF 00
 (1742566821.469713)  can0  281   [6]  00 00 0C 00 03 01
 (1742566821.469939)  can0  601   [8]  2B 43 40 00 00 00 00 00
 (1742566821.470493)  can0  581   [8]  60 43 40 00 00 00 00 00
 (1742566821.474093)  can0  182   [7]  04 01 A7 17 FF FF 00
 (1742566821.474288)  can0  282   [6]  2F 00 14 00 04 01
 (1742566821.474513)  can0  181   [7]  57 01 BE 01 FF FF 00
 (1742566821.474713)  can0  281   [6]  00 00 14 00 03 01
 (1742566821.479093)  can0  182   [7]  FF 00 A7 17 FF FF 00
 (1742566821.479313)  can0  282   [6]  2F 00 14 00 04 01
 (1742566821.479538)  can0  181   [7]  57 01 BE 01 FF FF 00
 (1742566821.479738)  can0  281   [6]  00 00 17 00 03 01
 (1742566821.479963)  can0  602   [8]  2B 43 40 00 00 00 00 00
 (1742566821.481092)  can0  582   [8]  60 43 40 00 00 00 00 00
 (1742566821.484093)  can0  182   [7]  FD 00 A8 17 FF FF 00
 (1742566821.484313)  can0  282   [6]  00 00 01 00 04 01
 (1742566821.484514)  can0  181   [7]  57 01 BE 01 FF FF 00
 (1742566821.484738)  can0  281   [6]  00 00 18 00 03 01
 (1742566821.489095)  can0  182   [7]  FD 00 A8 17 FF FF 00
 (1742566821.489313)  can0  282   [6]  00 00 02 00 03 01
 (1742566821.489538)  can0  181   [7]  51 01 BE 01 FF FF 00
 (1742566821.489737)  can0  281   [6]  00 00 18 00 03 01
 (1742566821.494091)  can0  182   [7]  FD 00 A8 17 FF FF 00
 (1742566821.494312)  can0  282   [6]  00 00 06 00 03 01
 (1742566821.494535)  can0  181   [7]  4C 01 BE 01 FF FF 00
 (1742566821.494755)  can0  281   [6]  00 00 18 00 03 01
 (1742566821.499093)  can0  182   [7]  FD 00 A8 17 FF FF 00
 (1742566821.499313)  can0  282   [6]  00 00 0B 00 03 01
 (1742566821.499538)  can0  181   [7]  47 01 BE 01 FF FF 00
 (1742566821.499738)  can0  281   [6]  00 00 17 00 03 01
 (1742566821.504093)  can0  182   [7]  FD 00 A8 17 FF FF 00
 (1742566821.504313)  can0  282   [6]  00 00 12 00 03 01
 (1742566821.504559)  can0  181   [7]  47 01 BE 01 FF FF 00
 (1742566821.504756)  can0  281   [6]  00 00 17 00 03 01
 (1742566821.509093)  can0  182   [7]  FD 00 A8 17 FF FF 00
 (1742566821.509313)  can0  282   [6]  00 00 19 00 03 01
 (1742566821.509534)  can0  181   [7]  47 01 BE 01 FF FF 00
 (1742566821.509756)  can0  281   [6]  00 00 16 00 03 01
 (1742566821.514093)  can0  182   [7]  FD 00 A8 17 FF FF 00
 (1742566821.514313)  can0  282   [6]  00 00 19 00 03 01
 (1742566821.514539)  can0  181   [7]  47 01 BE 01 FF FF 00
 (1742566821.514738)  can0  281   [6]  00 00 15 00 03 01
 (1742566821.519092)  can0  182   [7]  FD 00 A8 17 FF FF 00
 (1742566821.519313)  can0  282   [6]  00 00 19 00 03 01
 (1742566821.519513)  can0  181   [7]  47 01 BE 01 FF FF 00
 (1742566821.519738)  can0  281   [6]  00 00 15 00 03 01
 (1742566821.524093)  can0  182   [7]  FB 00 A8 17 FF FF 00
 (1742566821.524313)  can0  282   [6]  00 00 18 00 03 01
 (1742566821.524534)  can0  181   [7]  47 01 BE 01 FF FF 00
 (1742566821.524756)  can0  281   [6]  00 00 16 00 03 01
 (1742566821.529093)  can0  182   [7]  F7 00 A8 17 FF FF 00
 (1742566821.529288)  can0  282   [6]  00 00 17 00 03 01
 (1742566821.529513)  can0  181   [7]  47 01 BE 01 FF FF 00
 (1742566821.529713)  can0  281   [6]  00 00 17 00 03 01
 (1742566821.534093)  can0  182   [7]  F4 00 A8 17 FF FF 00
 (1742566821.534312)  can0  282   [6]  00 00 16 00 03 01
 (1742566821.534509)  can0  181   [7]  47 01 BE 01 FF FF 00
 (1742566821.534732)  can0  281   [6]  00 00 16 00 03 01
 (1742566821.534956)  can0  601   [8]  2B 43 40 00 00 00 00 00
 (1742566821.535466)  can0  581   [8]  60 43 40 00 00 00 00 00
 (1742566821.539092)  can0  182   [7]  F4 00 A8 17 FF FF 00
 (1742566821.539312)  can0  282   [6]  00 00 16 00 03 01
 (1742566821.539537)  can0  181   [7]  47 01 BE 01 FF FF 00
 (1742566821.539737)  can0  281   [6]  00 00 15 00 03 01
 (1742566821.544093)  can0  182   [7]  F4 00 A8 17 FF FF 00
 (1742566821.544311)  can0  282   [6]  00 00 16 00 03 01
 (1742566821.544536)  can0  181   [7]  47 01 BE 01 FF FF 00
 (1742566821.544736)  can0  281   [6]  00 00 15 00 03 01
 (1742566821.544958)  can0  602   [8]  2B 43 40 00 00 00 00 00
 (1742566821.546092)  can0  582   [8]  60 43 40 00 00 00 00 00
 (1742566821.549092)  can0  182   [7]  F4 00 A8 17 FF FF 00
 (1742566821.549288)  can0  282   [6]  00 00 16 00 03 01
 (1742566821.549512)  can0  181   [7]  47 01 BE 01 FF FF 00
 (1742566821.549712)  can0  281   [6]  00 00 16 00 03 01
 (1742566821.554092)  can0  182   [7]  F4 00 A8 17 FF FF 00
 (1742566821.554356)  can0  282   [6]  00 00 17 00 03 01
 (1742566821.554573)  can0  181   [7]  47 01 BE 01 FF FF 00
 (1742566821.554793)  can0  281   [6]  00 00 16 00 03 01
 (1742566821.559160)  can0  182   [7]  F4 00 A8 17 FF FF 00
 (1742566821.559395)  can0  282   [6]  00 00 17 00 03 01
 (1742566821.559604)  can0  181   [7]  47 01 BE 01 FF FF 00
 (1742566821.559819)  can0  281   [6]  00 00 16 00 03 01
 (1742566821.564156)  can0  182   [7]  F4 00 A8 17 FF FF 00
 (1742566821.564377)  can0  282   [6]  00 00 16 00 03 01
 (1742566821.564601)  can0  181   [7]  47 01 BE 01 FF FF 00
 (1742566821.564827)  can0  281   [6]  00 00 16 00 03 01
 (1742566821.569153)  can0  182   [7]  F4 00 A8 17 FF FF 00
 (1742566821.569400)  can0  282   [6]  00 00 16 00 03 01
 (1742566821.569608)  can0  181   [7]  47 01 BE 01 FF FF 00
 (1742566821.569797)  can0  281   [6]  00 00 16 00 03 01
 (1742566821.574155)  can0  182   [7]  F4 00 A8 17 FF FF 00
 (1742566821.574377)  can0  282   [6]  00 00 16 00 03 01
 (1742566821.574596)  can0  181   [7]  47 01 BE 01 FF FF 00
 (1742566821.574786)  can0  281   [6]  00 00 15 00 03 01
 (1742566821.579153)  can0  182   [7]  F4 00 A8 17 FF FF 00
 (1742566821.579374)  can0  282   [6]  00 00 17 00 03 01
 (1742566821.579624)  can0  181   [7]  47 01 BE 01 FF FF 00
 (1742566821.579819)  can0  281   [6]  00 00 15 00 03 01
 (1742566821.584158)  can0  182   [7]  F4 00 A8 17 FF FF 00
 (1742566821.584376)  can0  282   [6]  00 00 17 00 03 01
 (1742566821.584593)  can0  181   [7]  47 01 BE 01 FF FF 00
 (1742566821.584812)  can0  281   [6]  00 00 16 00 03 01
 (1742566821.589153)  can0  182   [7]  F4 00 A8 17 FF FF 00
 (1742566821.589369)  can0  282   [6]  00 00 16 00 03 01
 (1742566821.589616)  can0  181   [7]  47 01 BE 01 FF FF 00
 (1742566821.589822)  can0  281   [6]  00 00 16 00 03 01
 (1742566821.594154)  can0  182   [7]  F4 00 A8 17 FF FF 00
 (1742566821.594378)  can0  282   [6]  00 00 16 00 03 01
 (1742566821.594602)  can0  181   [7]  47 01 BE 01 FF FF 00
 (1742566821.594818)  can0  281   [6]  00 00 16 00 03 01
 (1742566821.599157)  can0  182   [7]  F4 00 A8 17 FF FF 00
 (1742566821.599352)  can0  282   [6]  00 00 16 00 03 01
 (1742566821.599569)  can0  181   [7]  47 01 BE 01 FF FF 00
 (1742566821.599794)  can0  281   [6]  00 00 16 00 03 01
 (1742566821.600040)  can0  601   [8]  2B 43 40 00 00 00 00 00
 (1742566821.600550)  can0  581   [8]  60 43 40 00 00 00 00 00
 (1742566821.604155)  can0  182   [7]  F4 00 A8 17 FF FF 00
 (1742566821.604375)  can0  282   [6]  00 00 17 00 03 01
 (1742566821.604573)  can0  181   [7]  47 01 BE 01 FF FF 00
 (1742566821.604801)  can0  281   [6]  00 00 15 00 03 01
 (1742566821.609155)  can0  182   [7]  F4 00 A8 17 FF FF 00
 (1742566821.609375)  can0  282   [6]  00 00 17 00 03 01
 (1742566821.609595)  can0  181   [7]  47 01 BE 01 FF FF 00
 (1742566821.609842)  can0  602   [8]  2B 43 40 00 00 00 00 00
 (1742566821.610058)  can0  281   [6]  00 00 16 00 03 01
 (1742566821.610334)  can0  582   [8]  60 43 40 00 00 00 00 00
 (1742566821.614156)  can0  182   [7]  F4 00 A8 17 FF FF 00
 (1742566821.614376)  can0  282   [6]  00 00 16 00 03 01
 (1742566821.614593)  can0  181   [7]  47 01 BE 01 FF FF 00
 (1742566821.614815)  can0  281   [6]  00 00 16 00 03 01
 (1742566821.619169)  can0  182   [7]  F4 00 A8 17 FF FF 00
 (1742566821.619375)  can0  282   [6]  00 00 16 00 03 01
 (1742566821.619551)  can0  181   [7]  00 00 BE 01 FF FF 00
 (1742566821.619798)  can0  281   [6]  C9 00 16 00 03 01
 (1742566821.624162)  can0  182   [7]  F4 00 A8 17 FF FF 00
 (1742566821.624361)  can0  282   [6]  00 00 16 00 03 01
 (1742566821.624582)  can0  181   [7]  00 00 BE 01 FF FF 00
 (1742566821.624798)  can0  281   [6]  CC 00 16 00 03 01
 (1742566821.629153)  can0  182   [7]  F4 00 A8 17 FF FF 00
 (1742566821.629375)  can0  282   [6]  00 00 17 00 03 01
 (1742566821.629628)  can0  181   [7]  00 00 BE 01 FF FF 00
 (1742566821.629811)  can0  281   [6]  CC 00 16 00 03 01
 (1742566821.634173)  can0  182   [7]  F4 00 A8 17 FF FF 00
 (1742566821.634389)  can0  282   [6]  00 00 17 00 03 01
 (1742566821.634619)  can0  181   [7]  00 00 BE 01 FF FF 00
 (1742566821.634798)  can0  281   [6]  C9 00 15 00 03 01
 (1742566821.639161)  can0  182   [7]  F4 00 A8 17 FF FF 00
 (1742566821.639353)  can0  282   [6]  00 00 16 00 03 01
 (1742566821.639590)  can0  181   [7]  00 00 BE 01 FF FF 00
 (1742566821.639798)  can0  281   [6]  C1 00 16 00 03 01
 (1742566821.644157)  can0  182   [7]  F4 00 A8 17 FF FF 00
 (1742566821.644383)  can0  282   [6]  00 00 16 00 03 01
 (1742566821.644611)  can0  181   [7]  00 00 BE 01 FF FF 00
 (1742566821.644820)  can0  281   [6]  C5 00 16 00 03 01
 (1742566821.649154)  can0  182   [7]  00 00 A8 17 FF FF 00
 (1742566821.649380)  can0  282   [6]  BF 00 17 00 03 01
 (1742566821.649617)  can0  181   [7]  00 00 BE 01 FF FF 00
 (1742566821.649818)  can0  281   [6]  CC 00 16 00 03 01
 (1742566821.654154)  can0  182   [7]  00 00 A8 17 FF FF 00
 (1742566821.654370)  can0  282   [6]  C7 00 17 00 03 01
 (1742566821.654615)  can0  181   [7]  00 00 BE 01 FF FF 00
 (1742566821.654840)  can0  281   [6]  CC 00 16 00 03 01
 (1742566821.659183)  can0  182   [7]  00 00 A8 17 FF FF 00
 (1742566821.659390)  can0  282   [6]  D0 00 17 00 03 01
 (1742566821.659603)  can0  181   [7]  00 00 BE 01 FF FF 00
 (1742566821.659797)  can0  281   [6]  CC 00 15 00 03 01
 (1742566821.664160)  can0  182   [7]  00 00 A8 17 FF FF 00
 (1742566821.664375)  can0  282   [6]  CE 00 16 00 03 01
 (1742566821.664604)  can0  181   [7]  00 00 BE 01 FF FF 00
 (1742566821.664800)  can0  281   [6]  C5 00 15 00 03 01
 (1742566821.665013)  can0  601   [8]  2B 43 40 00 00 00 00 00
 (1742566821.665555)  can0  581   [8]  60 43 40 00 00 00 00 00
 (1742566821.669153)  can0  182   [7]  00 00 A8 17 FF FF 00
 (1742566821.669382)  can0  282   [6]  C3 00 16 00 03 01
 (1742566821.669592)  can0  181   [7]  00 00 BE 01 FF FF 00
 (1742566821.669818)  can0  281   [6]  C1 00 16 00 03 01
 (1742566821.674153)  can0  182   [7]  00 00 A8 17 FF FF 00
 (1742566821.674372)  can0  282   [6]  C1 00 16 00 03 01
 (1742566821.674622)  can0  181   [7]  00 00 BE 01 FF FF 00
 (1742566821.674799)  can0  281   [6]  C5 00 16 00 03 01
 (1742566821.675043)  can0  602   [8]  2B 43 40 00 00 00 00 00
 (1742566821.676153)  can0  582   [8]  60 43 40 00 00 00 00 00
 (1742566821.679162)  can0  182   [7]  00 00 A8 17 FF FF 00
 (1742566821.679361)  can0  282   [6]  C3 00 17 00 03 01
 (1742566821.679587)  can0  181   [7]  00 00 BE 01 FF FF 00
 (1742566821.679774)  can0  281   [6]  CC 00 16 00 03 01
 (1742566821.684172)  can0  182   [7]  00 00 A8 17 FF FF 00
 (1742566821.684364)  can0  282   [6]  CE 00 17 00 03 01
 (1742566821.684588)  can0  181   [7]  00 00 BE 01 FF FF 00
 (1742566821.684780)  can0  281   [6]  CC 00 16 00 03 01
 (1742566821.689163)  can0  182   [7]  00 00 A8 17 FF FF 00
 (1742566821.689376)  can0  282   [6]  D0 00 16 00 03 01
 (1742566821.689630)  can0  181   [7]  00 00 BE 01 FF FF 00
 (1742566821.689816)  can0  281   [6]  CC 00 16 00 03 01
 (1742566821.694156)  can0  182   [7]  00 00 A8 17 FF FF 00
 (1742566821.694382)  can0  282   [6]  C7 00 16 00 03 01
 (1742566821.694599)  can0  181   [7]  00 00 BE 01 FF FF 00
 (1742566821.694818)  can0  281   [6]  C9 00 15 00 03 01
 (1742566821.699156)  can0  182   [7]  00 00 A8 17 FF FF 00
 (1742566821.699379)  can0  282   [6]  C1 00 16 00 03 01
 (1742566821.699600)  can0  181   [7]  00 00 BE 01 FF FF 00
 (1742566821.699841)  can0  281   [6]  C1 00 16 00 03 01
 (1742566821.704171)  can0  182   [7]  00 00 A8 17 FF FF 00
 (1742566821.704371)  can0  282   [6]  C5 00 17 00 03 01
 (1742566821.704595)  can0  181   [7]  00 00 BE 01 FF FF 00
 (1742566821.704842)  can0  281   [6]  C3 00 16 00 03 01
 (1742566821.709171)  can0  182   [7]  00 00 A8 17 FF FF 00
 (1742566821.709380)  can0  282   [6]  CE 00 17 00 03 01
 (1742566821.709599)  can0  181   [7]  00 00 BE 01 FF FF 00
 (1742566821.709802)  can0  281   [6]  C9 00 16 00 03 01
 (1742566821.714159)  can0  182   [7]  00 00 A8 17 FF FF 00
 (1742566821.714369)  can0  282   [6]  D2 00 16 00 03 01
 (1742566821.714595)  can0  181   [7]  00 00 BE 01 FF FF 00
 (1742566821.714793)  can0  281   [6]  CC 00 16 00 03 01
 (1742566821.719165)  can0  182   [7]  00 00 A8 17 FF FF 00
 (1742566821.719392)  can0  282   [6]  C9 00 16 00 03 01
 (1742566821.719597)  can0  181   [7]  00 00 BE 01 FF FF 00
 (1742566821.719800)  can0  281   [6]  CC 00 16 00 03 01
 (1742566821.724153)  can0  182   [7]  00 00 A8 17 FF FF 00
 (1742566821.724373)  can0  282   [6]  C1 00 16 00 03 01
 (1742566821.724628)  can0  181   [7]  00 00 BE 01 FF FF 00
 (1742566821.724793)  can0  281   [6]  C9 00 15 00 03 01
 (1742566821.729157)  can0  182   [7]  00 00 A8 17 FF FF 00
 (1742566821.729362)  can0  282   [6]  C1 00 17 00 03 01
 (1742566821.729595)  can0  181   [7]  00 00 BE 01 FF FF 00
 (1742566821.729800)  can0  281   [6]  C3 00 16 00 03 01
 (1742566821.730022)  can0  601   [8]  2B 43 40 00 00 00 00 00
 (1742566821.730553)  can0  581   [8]  60 43 40 00 00 00 00 00
 (1742566821.734162)  can0  182   [7]  00 00 A8 17 FF FF 00
 (1742566821.734376)  can0  282   [6]  C9 00 17 00 03 01
 (1742566821.734617)  can0  181   [7]  00 00 BE 01 FF FF 00
 (1742566821.734804)  can0  281   [6]  C3 00 16 00 03 01
 (1742566821.739153)  can0  182   [7]  00 00 A8 17 FF FF 00
 (1742566821.739288)  can0  282   [6]  D0 00 16 00 03 01
 (1742566821.739512)  can0  181   [7]  00 00 BE 01 FF FF 00
 (1742566821.739809)  can0  281   [6]  C9 00 16 00 03 01
 (1742566821.740026)  can0  602   [8]  2B 43 40 00 00 00 00 00
 (1742566821.741157)  can0  582   [8]  60 43 40 00 00 00 00 00
 (1742566821.744154)  can0  182   [7]  00 00 A8 17 FF FF 00
 (1742566821.744360)  can0  282   [6]  C9 00 16 00 03 01
 (1742566821.744569)  can0  181   [7]  00 00 BE 01 FF FF 00
 (1742566821.744768)  can0  281   [6]  CC 00 16 00 03 01
 (1742566821.749153)  can0  182   [7]  00 00 A8 17 FF FF 00
 (1742566821.749365)  can0  282   [6]  C1 00 16 00 03 01
 (1742566821.749599)  can0  181   [7]  00 00 BE 01 FF FF 00
 (1742566821.749814)  can0  281   [6]  CC 00 16 00 03 01
 (1742566821.754162)  can0  182   [7]  00 00 A8 17 FF FF 00
 (1742566821.754396)  can0  282   [6]  C1 00 17 00 03 01
 (1742566821.754601)  can0  181   [7]  00 00 BE 01 FF FF 00
 (1742566821.754817)  can0  281   [6]  C7 00 15 00 03 01
 (1742566821.759154)  can0  182   [7]  00 00 A8 17 FF FF 00
 (1742566821.759380)  can0  282   [6]  C9 00 17 00 03 01
 (1742566821.759614)  can0  181   [7]  00 00 BE 01 FF FF 00
 (1742566821.759796)  can0  281   [6]  C1 00 16 00 03 01
 (1742566821.764165)  can0  182   [7]  00 00 A8 17 FF FF 00
 (1742566821.764371)  can0  282   [6]  D0 00 16 00 03 01
 (1742566821.764600)  can0  181   [7]  00 00 BE 01 FF FF 00
 (1742566821.764800)  can0  281   [6]  C5 00 16 00 03 01
 (1742566821.769154)  can0  182   [7]  00 00 A8 17 FF FF 00
 (1742566821.769382)  can0  282   [6]  CC 00 16 00 03 01
 (1742566821.769593)  can0  181   [7]  00 00 BE 01 FF FF 00
 (1742566821.769786)  can0  281   [6]  C9 00 16 00 03 01
 (1742566821.774157)  can0  182   [7]  00 00 A8 17 FF FF 00
 (1742566821.774376)  can0  282   [6]  C3 00 16 00 03 01
 (1742566821.774565)  can0  181   [7]  00 00 BE 01 FF FF 00
 (1742566821.774787)  can0  281   [6]  CC 00 16 00 03 01
 (1742566821.779165)  can0  182   [7]  00 00 A8 17 FF FF 00
 (1742566821.779362)  can0  282   [6]  C1 00 17 00 03 01
 (1742566821.779567)  can0  181   [7]  00 00 BE 01 FF FF 00
 (1742566821.779767)  can0  281   [6]  CC 00 16 00 03 01
 (1742566821.784162)  can0  182   [7]  00 00 A8 17 FF FF 00
 (1742566821.784348)  can0  282   [6]  C7 00 17 00 03 01
 (1742566821.784564)  can0  181   [7]  00 00 BE 01 FF FF 00
 (1742566821.784797)  can0  281   [6]  C9 00 15 00 03 01
 (1742566821.789153)  can0  182   [7]  00 00 A8 17 FF FF 00
 (1742566821.789354)  can0  282   [6]  D0 00 17 00 03 01
 (1742566821.789579)  can0  181   [7]  00 00 BE 01 FF FF 00
 (1742566821.789774)  can0  281   [6]  C3 00 16 00 03 01
 (1742566821.794163)  can0  182   [7]  00 00 A8 17 FF FF 00
 (1742566821.794358)  can0  282   [6]  CE 00 16 00 03 01
 (1742566821.794589)  can0  181   [7]  00 00 BE 01 FF FF 00
 (1742566821.794787)  can0  281   [6]  C3 00 16 00 03 01
 (1742566821.795038)  can0  601   [8]  2B 43 40 00 00 00 00 00
 (1742566821.795570)  can0  581   [8]  60 43 40 00 00 00 00 00
 (1742566821.799154)  can0  182   [7]  00 00 A8 17 FF FF 00
 (1742566821.799362)  can0  282   [6]  C5 00 16 00 03 01
 (1742566821.799575)  can0  181   [7]  00 00 BE 01 FF FF 00
 (1742566821.799798)  can0  281   [6]  C9 00 16 00 03 01
 (1742566821.804163)  can0  182   [7]  00 00 A8 17 FF FF 00
 (1742566821.804349)  can0  282   [6]  C1 00 17 00 03 01
 (1742566821.804583)  can0  181   [7]  00 00 BE 01 FF FF 00
 (1742566821.804775)  can0  281   [6]  CC 00 16 00 03 01
 (1742566821.804993)  can0  602   [8]  2B 43 40 00 00 00 00 00
 (1742566821.806161)  can0  582   [8]  60 43 40 00 00 00 00 00
 (1742566821.809160)  can0  182   [7]  00 00 A8 17 FF FF 00
 (1742566821.809398)  can0  282   [6]  C5 00 17 00 03 01
 (1742566821.809603)  can0  181   [7]  00 00 BE 01 FF FF 00
 (1742566821.809812)  can0  281   [6]  CC 00 15 00 03 01
 (1742566821.814189)  can0  182   [7]  00 00 A8 17 FF FF 00
 (1742566821.814391)  can0  282   [6]  D0 00 17 00 03 01
 (1742566821.814601)  can0  181   [7]  00 00 BE 01 FF FF 00
 (1742566821.814807)  can0  281   [6]  C5 00 15 00 03 01
 (1742566821.819174)  can0  182   [7]  00 00 A8 17 FF FF 00
 (1742566821.819371)  can0  282   [6]  CE 00 16 00 03 01
 (1742566821.819606)  can0  181   [7]  00 00 BE 01 FF FF 00
 (1742566821.819785)  can0  281   [6]  C1 00 16 00 03 01
 (1742566821.824175)  can0  182   [7]  00 00 A8 17 FF FF 00
 (1742566821.824375)  can0  282   [6]  C5 00 16 00 03 01
 (1742566821.824593)  can0  181   [7]  00 00 BE 01 FF FF 00
 (1742566821.824810)  can0  281   [6]  C7 00 16 00 03 01
 (1742566821.829156)  can0  182   [7]  00 00 A8 17 FF FF 00
 (1742566821.829380)  can0  282   [6]  C1 00 17 00 03 01
 (1742566821.829566)  can0  181   [7]  00 00 BE 01 FF FF 00
 (1742566821.829822)  can0  281   [6]  CC 00 16 00 03 01
 (1742566821.834164)  can0  182   [7]  00 00 A8 17 FF FF 00
 (1742566821.834368)  can0  282   [6]  C9 00 17 00 03 01
 (1742566821.834569)  can0  181   [7]  00 00 BE 01 FF FF 00
 (1742566821.834768)  can0  281   [6]  CC 00 16 00 03 01
 (1742566821.839163)  can0  182   [7]  00 00 A8 17 FF FF 00
 (1742566821.839371)  can0  282   [6]  D0 00 17 00 03 01
 (1742566821.839508)  can0  181   [7]  00 00 BE 01 FF FF 00
 (1742566821.839705)  can0  281   [6]  CC 00 15 00 03 01
 (1742566821.844153)  can0  182   [7]  00 00 A8 17 FF FF 00
 (1742566821.844367)  can0  282   [6]  CE 00 16 00 03 01
 (1742566821.844568)  can0  181   [7]  00 00 BE 01 FF FF 00
 (1742566821.844758)  can0  281   [6]  C5 00 15 00 03 01
 (1742566821.849155)  can0  182   [7]  00 00 A8 17 FF FF 00
 (1742566821.849371)  can0  282   [6]  C5 00 16 00 03 01
 (1742566821.849590)  can0  181   [7]  00 00 BE 01 FF FF 00
 (1742566821.849825)  can0  281   [6]  C1 00 16 00 03 01
 (1742566821.854168)  can0  182   [7]  00 00 A8 17 FF FF 00
 (1742566821.854355)  can0  282   [6]  C1 00 17 00 03 01
 (1742566821.854574)  can0  181   [7]  00 00 BE 01 FF FF 00
 (1742566821.854760)  can0  281   [6]  C7 00 16 00 03 01
 (1742566821.859160)  can0  182   [7]  00 00 A8 17 FF FF 00
 (1742566821.859388)  can0  282   [6]  C5 00 17 00 03 01
 (1742566821.859602)  can0  181   [7]  00 00 BE 01 FF FF 00
 (1742566821.859815)  can0  281   [6]  CC 00 16 00 03 01
 (1742566821.860033)  can0  601   [8]  2B 43 40 00 00 00 00 00
 (1742566821.860534)  can0  581   [8]  60 43 40 00 00 00 00 00
 (1742566821.864152)  can0  182   [7]  00 00 A8 17 FF FF 00
 (1742566821.864370)  can0  282   [6]  D0 00 17 00 03 01
 (1742566821.864565)  can0  181   [7]  00 00 BE 01 FF FF 00
 (1742566821.864788)  can0  281   [6]  CC 00 16 00 03 01
 (1742566821.869150)  can0  182   [7]  00 00 A8 17 FF FF 00
 (1742566821.869375)  can0  282   [6]  CE 00 16 00 03 01
 (1742566821.869597)  can0  181   [7]  00 00 BE 01 FF FF 00
 (1742566821.869811)  can0  602   [8]  2B 43 40 00 00 00 00 00
 (1742566821.870033)  can0  281   [6]  CC 00 15 00 03 01
 (1742566821.870315)  can0  582   [8]  60 43 40 00 00 00 00 00
 (1742566821.874152)  can0  182   [7]  00 00 A8 17 FF FF 00
 (1742566821.874374)  can0  282   [6]  C5 00 16 00 03 01
 (1742566821.874586)  can0  181   [7]  00 00 BE 01 FF FF 00
 (1742566821.874809)  can0  281   [6]  C3 00 16 00 03 01
 (1742566821.879153)  can0  182   [7]  00 00 A8 17 FF FF 00
 (1742566821.879364)  can0  282   [6]  C1 00 17 00 03 01
 (1742566821.879576)  can0  181   [7]  00 00 BE 01 FF FF 00
 (1742566821.879787)  can0  281   [6]  C1 00 16 00 03 01
 (1742566821.884152)  can0  182   [7]  00 00 A8 17 FF FF 00
 (1742566821.884350)  can0  282   [6]  C5 00 17 00 03 01
 (1742566821.884567)  can0  181   [7]  00 00 BE 01 FF FF 00
 (1742566821.884773)  can0  281   [6]  C9 00 16 00 03 01
 (1742566821.889152)  can0  182   [7]  00 00 A8 17 FF FF 00
 (1742566821.889354)  can0  282   [6]  CE 00 17 00 03 01
 (1742566821.889575)  can0  181   [7]  00 00 BE 01 FF FF 00
 (1742566821.889769)  can0  281   [6]  CC 00 16 00 03 01
 (1742566821.894155)  can0  182   [7]  00 00 A8 17 FF FF 00
 (1742566821.894354)  can0  282   [6]  CE 00 16 00 03 01
 (1742566821.894572)  can0  181   [7]  00 00 BE 01 FF FF 00
 (1742566821.894790)  can0  281   [6]  CC 00 16 00 03 01
 (1742566821.899156)  can0  182   [7]  00 00 A8 17 FF FF 00
 (1742566821.899330)  can0  282   [6]  C5 00 16 00 03 01
 (1742566821.899556)  can0  181   [7]  00 00 BE 01 FF FF 00
 (1742566821.899747)  can0  281   [6]  C9 00 15 00 03 01
 (1742566821.904153)  can0  182   [7]  00 00 A8 17 FF FF 00
 (1742566821.904341)  can0  282   [6]  C1 00 17 00 03 01
 (1742566821.904575)  can0  181   [7]  00 00 BE 01 FF FF 00
 (1742566821.904769)  can0  281   [6]  C3 00 16 00 03 01
 (1742566821.909152)  can0  182   [7]  00 00 A8 17 FF FF 00
 (1742566821.909391)  can0  282   [6]  C5 00 17 00 03 01
 (1742566821.909592)  can0  181   [7]  00 00 BE 01 FF FF 00
 (1742566821.909794)  can0  281   [6]  C3 00 16 00 03 01
 (1742566821.914150)  can0  182   [7]  00 00 A8 17 FF FF 00
 (1742566821.914366)  can0  282   [6]  D0 00 17 00 03 01
 (1742566821.914592)  can0  181   [7]  00 00 BE 01 FF FF 00
 (1742566821.914816)  can0  281   [6]  C9 00 16 00 03 01
 (1742566821.919151)  can0  182   [7]  00 00 A8 17 FF FF 00
 (1742566821.919365)  can0  282   [6]  CE 00 16 00 03 01
 (1742566821.919613)  can0  181   [7]  00 00 BE 01 FF FF 00
 (1742566821.919783)  can0  281   [6]  CC 00 16 00 03 01
 (1742566821.924152)  can0  182   [7]  00 00 A8 17 FF FF 00
 (1742566821.924367)  can0  282   [6]  C5 00 16 00 03 01
 (1742566821.924592)  can0  181   [7]  00 00 BE 01 FF FF 00
 (1742566821.924791)  can0  281   [6]  CC 00 16 00 03 01
 (1742566821.924951)  can0  601   [8]  2B 43 40 00 00 00 00 00
 (1742566821.925553)  can0  581   [8]  60 43 40 00 00 00 00 00
 (1742566821.929155)  can0  182   [7]  00 00 A8 17 FF FF 00
 (1742566821.929312)  can0  282   [6]  C1 00 17 00 03 01
 (1742566821.929533)  can0  181   [7]  00 00 BE 01 FF FF 00
 (1742566821.929754)  can0  281   [6]  C7 00 15 00 03 01
 (1742566821.934091)  can0  182   [7]  00 00 A8 17 FF FF 00
 (1742566821.934311)  can0  282   [6]  C5 00 17 00 03 01
 (1742566821.934536)  can0  181   [7]  00 00 BE 01 FF FF 00
 (1742566821.934737)  can0  281   [6]  C1 00 16 00 03 01
 (1742566821.934961)  can0  602   [8]  2B 43 40 00 00 00 00 00
 (1742566821.936090)  can0  582   [8]  60 43 40 00 00 00 00 00
 (1742566821.939091)  can0  182   [7]  00 00 A8 17 FF FF 00
 (1742566821.939286)  can0  282   [6]  CE 00 17 00 03 01
 (1742566821.939511)  can0  181   [7]  00 00 BE 01 FF FF 00
 (1742566821.939711)  can0  281   [6]  C5 00 16 00 03 01
 (1742566821.944090)  can0  182   [7]  00 00 A8 17 FF FF 00
 (1742566821.944286)  can0  282   [6]  CE 00 16 00 03 01
 (1742566821.944511)  can0  181   [7]  00 00 BE 01 FF FF 00
 (1742566821.944736)  can0  281   [6]  CC 00 16 00 03 01
 (1742566821.949091)  can0  182   [7]  00 00 A8 17 FF FF 00
 (1742566821.949261)  can0  282   [6]  C5 00 16 00 03 01
 (1742566821.949482)  can0  181   [7]  00 00 BE 01 FF FF 00
 (1742566821.949704)  can0  281   [6]  CC 00 16 00 03 01
 (1742566821.954091)  can0  182   [7]  00 00 A8 17 FF FF 00
 (1742566821.954286)  can0  282   [6]  C1 00 16 00 03 01
 (1742566821.954511)  can0  181   [7]  00 00 BE 01 FF FF 00
 (1742566821.954711)  can0  281   [6]  CC 00 15 00 03 01
 (1742566821.959091)  can0  182   [7]  00 00 A8 17 FF FF 00
 (1742566821.959311)  can0  282   [6]  C5 00 17 00 03 01
 (1742566821.959536)  can0  181   [7]  00 00 BE 01 FF FF 00
 (1742566821.959736)  can0  281   [6]  C5 00 15 00 03 01
 (1742566821.964090)  can0  182   [7]  00 00 A8 17 FF FF 00
 (1742566821.964311)  can0  282   [6]  CE 00 17 00 03 01
 (1742566821.964561)  can0  181   [7]  00 00 BE 01 FF FF 00
 (1742566821.964761)  can0  281   [6]  C1 00 16 00 03 01
 (1742566821.969090)  can0  182   [7]  00 00 A8 17 FF FF 00
 (1742566821.969311)  can0  282   [6]  D0 00 16 00 03 01
 (1742566821.969536)  can0  181   [7]  00 00 BE 01 FF FF 00
 (1742566821.969736)  can0  281   [6]  C7 00 16 00 03 01
 (1742566821.974090)  can0  182   [7]  00 00 A8 17 FF FF 00
 (1742566821.974311)  can0  282   [6]  C7 00 16 00 03 01
 (1742566821.974536)  can0  181   [7]  00 00 BE 01 FF FF 00
 (1742566821.974736)  can0  281   [6]  CC 00 16 00 03 01
 (1742566821.979090)  can0  182   [7]  00 00 A8 17 FF FF 00
 (1742566821.979311)  can0  282   [6]  C1 00 16 00 03 01
 (1742566821.979511)  can0  181   [7]  00 00 BE 01 FF FF 00
 (1742566821.979736)  can0  281   [6]  CC 00 16 00 03 01
 (1742566821.984090)  can0  182   [7]  00 00 A8 17 FF FF 00
 (1742566821.984311)  can0  282   [6]  C3 00 17 00 03 01
 (1742566821.984511)  can0  181   [7]  00 00 BE 01 FF FF 00
 (1742566821.984736)  can0  281   [6]  C9 00 15 00 03 01
 (1742566821.989090)  can0  182   [7]  00 00 A8 17 FF FF 00
 (1742566821.989285)  can0  282   [6]  CC 00 17 00 03 01
 (1742566821.989510)  can0  181   [7]  00 00 BE 01 FF FF 00
 (1742566821.989710)  can0  281   [6]  C3 00 16 00 03 01
 (1742566821.989935)  can0  601   [8]  2B 43 40 00 3A FF 00 00
 (1742566821.990414)  can0  581   [8]  60 43 40 00 00 00 00 00
 (1742566821.994090)  can0  182   [7]  00 00 A8 17 FF FF 00
 (1742566821.994311)  can0  282   [6]  D0 00 16 00 03 01
 (1742566821.994536)  can0  181   [7]  00 00 BE 01 FF FF 00
 (1742566821.994735)  can0  281   [6]  83 00 00 00 03 01
 (1742566821.999090)  can0  182   [7]  00 00 A8 17 FF FF 00
 (1742566821.999286)  can0  282   [6]  C9 00 16 00 03 01
 (1742566821.999532)  can0  181   [7]  00 00 BE 01 FF FF 00
 (1742566821.999729)  can0  281   [6]  16 00 00 00 03 01
 (1742566821.999951)  can0  602   [8]  2B 43 40 00 F9 FF 00 00
 (1742566822.001090)  can0  582   [8]  60 43 40 00 00 00 00 00
 (1742566822.004090)  can0  182   [7]  00 00 A8 17 FF FF 00
 (1742566822.004311)  can0  282   [6]  9C 00 00 00 03 01
 (1742566822.004542)  can0  181   [7]  00 00 BE 01 FF FF 00
 (1742566822.004736)  can0  281   [6]  00 00 00 00 03 01
 (1742566822.009091)  can0  182   [7]  00 00 A8 17 FF FF 00
 (1742566822.009286)  can0  282   [6]  2B 00 00 00 03 01
 (1742566822.009511)  can0  181   [7]  00 00 BE 01 FF FF 00
 (1742566822.009736)  can0  281   [6]  00 00 00 00 03 01
 (1742566822.014090)  can0  182   [7]  00 00 A8 17 FF FF 00
 (1742566822.014311)  can0  282   [6]  00 00 00 00 04 01
 (1742566822.014533)  can0  181   [7]  00 00 BE 01 FF FF 00
 (1742566822.014729)  can0  281   [6]  00 00 00 00 03 01
 (1742566822.019090)  can0  182   [7]  00 00 A8 17 FF FF 00
 (1742566822.019286)  can0  282   [6]  00 00 00 00 04 01
 (1742566822.019511)  can0  181   [7]  00 00 BE 01 FF FF 00
 (1742566822.019711)  can0  281   [6]  00 00 00 00 03 01
 (1742566822.024090)  can0  182   [7]  00 00 A8 17 FF FF 00
 (1742566822.024286)  can0  282   [6]  00 00 00 00 04 01
 (1742566822.024511)  can0  181   [7]  00 00 BE 01 FF FF 00
 (1742566822.024711)  can0  281   [6]  00 00 00 00 03 01
 (1742566822.029091)  can0  182   [7]  00 00 A8 17 FF FF 00
 (1742566822.029311)  can0  282   [6]  00 00 00 00 04 01
 (1742566822.029536)  can0  181   [7]  00 00 BE 01 FF FF 00
 (1742566822.029761)  can0  281   [6]  00 00 00 00 03 01
 (1742566822.034090)  can0  182   [7]  00 00 A8 17 FF FF 00
 (1742566822.034310)  can0  282   [6]  00 00 00 00 04 01
 (1742566822.034535)  can0  181   [7]  00 00 BE 01 FF FF 00
 (1742566822.034735)  can0  281   [6]  00 00 00 00 03 01
 (1742566822.039090)  can0  182   [7]  00 00 A8 17 FF FF 00
 (1742566822.039284)  can0  282   [6]  00 00 00 00 04 01
 (1742566822.039506)  can0  181   [7]  00 00 BE 01 FF FF 00
 (1742566822.039727)  can0  281   [6]  00 00 00 00 03 01
 (1742566822.044091)  can0  182   [7]  00 00 A8 17 FF FF 00
 (1742566822.044285)  can0  282   [6]  00 00 00 00 04 01
 (1742566822.044506)  can0  181   [7]  00 00 BE 01 FF FF 00
 (1742566822.044728)  can0  281   [6]  00 00 00 00 03 01
 (1742566822.049090)  can0  182   [7]  00 00 A8 17 FF FF 00
 (1742566822.049261)  can0  282   [6]  00 00 00 00 04 01
 (1742566822.049486)  can0  181   [7]  00 00 BE 01 FF FF 00
 (1742566822.049711)  can0  281   [6]  00 00 00 00 03 01
 (1742566822.054090)  can0  182   [7]  00 00 A8 17 FF FF 00
 (1742566822.054323)  can0  282   [6]  00 00 00 00 04 01
 (1742566822.054554)  can0  181   [7]  00 00 BE 01 FF FF 00
 (1742566822.054775)  can0  281   [6]  00 00 00 00 03 01
 (1742566822.054993)  can0  601   [8]  2B 43 40 00 51 FE 00 00
 (1742566822.055491)  can0  581   [8]  60 43 40 00 00 00 00 00
 (1742566822.059090)  can0  182   [7]  00 00 A8 17 FF FF 00
 (1742566822.059318)  can0  282   [6]  00 00 00 00 04 01
 (1742566822.059546)  can0  181   [7]  00 00 BE 01 FF FF 00
 (1742566822.059773)  can0  281   [6]  00 00 00 00 03 01
 (1742566822.064157)  can0  182   [7]  00 00 A8 17 FF FF 00
 (1742566822.064378)  can0  282   [6]  00 00 00 00 04 01
 (1742566822.064638)  can0  181   [7]  00 00 BE 01 FF FF 00
 (1742566822.064792)  can0  602   [8]  2B 43 40 00 C8 FE 00 00
 (1742566822.065047)  can0  281   [6]  00 00 00 00 03 01
 (1742566822.065314)  can0  582   [8]  60 43 40 00 00 00 00 00
 (1742566822.069155)  can0  182   [7]  00 00 A8 17 FF FF 00
 (1742566822.069372)  can0  282   [6]  00 00 00 00 04 01
 (1742566822.069560)  can0  181   [7]  00 00 BE 01 FF FF 00
 (1742566822.069762)  can0  281   [6]  00 00 F8 FF 03 01
 (1742566822.074152)  can0  182   [7]  00 00 A8 17 FF FF 00
 (1742566822.074368)  can0  282   [6]  00 00 00 00 04 01
 (1742566822.074578)  can0  181   [7]  00 00 BE 01 FF FF 00
 (1742566822.074790)  can0  281   [6]  0A 00 EC FF 03 01
 (1742566822.079152)  can0  182   [7]  00 00 A8 17 FF FF 00
 (1742566822.079351)  can0  282   [6]  00 00 00 00 04 01
 (1742566822.079578)  can0  181   [7]  00 00 BE 01 FF FF 00
 (1742566822.079769)  can0  281   [6]  25 00 EC FF 03 01
 (1742566822.084202)  can0  182   [7]  00 00 A8 17 FF FF 00
 (1742566822.084357)  can0  282   [6]  00 00 00 00 04 01
 (1742566822.084578)  can0  181   [7]  00 00 BE 01 FF FF 00
 (1742566822.084814)  can0  281   [6]  21 00 EC FF 03 01
 (1742566822.089157)  can0  182   [7]  00 00 A8 17 FF FF 00
 (1742566822.089356)  can0  282   [6]  00 00 00 00 04 01
 (1742566822.089552)  can0  181   [7]  00 00 BE 01 FF FF 00
 (1742566822.089794)  can0  281   [6]  1D 00 EC FF 03 01
 (1742566822.094166)  can0  182   [7]  00 00 A8 17 FF FF 00
 (1742566822.094366)  can0  282   [6]  00 00 00 00 04 01
 (1742566822.094573)  can0  181   [7]  00 00 BE 01 FF FF 00
 (1742566822.094762)  can0  281   [6]  25 00 EC FF 03 01
 (1742566822.099184)  can0  182   [7]  00 00 A8 17 FF FF 00
 (1742566822.099393)  can0  282   [6]  00 00 00 00 04 01
 (1742566822.099592)  can0  181   [7]  00 00 BE 01 FF FF 00
 (1742566822.099793)  can0  281   [6]  2B 00 EC FF 03 01
 (1742566822.104176)  can0  182   [7]  00 00 A8 17 FF FF 00
 (1742566822.104380)  can0  282   [6]  00 00 00 00 04 01
 (1742566822.104607)  can0  181   [7]  00 00 BE 01 FF FF 00
 (1742566822.104793)  can0  281   [6]  3E 00 D8 FF 03 01
 (1742566822.109192)  can0  182   [7]  00 00 A8 17 FF FF 00
 (1742566822.109365)  can0  282   [6]  00 00 00 00 04 01
 (1742566822.109574)  can0  181   [7]  00 00 BE 01 FF FF 00
 (1742566822.109773)  can0  281   [6]  63 00 D8 FF 03 01
 (1742566822.114245)  can0  182   [7]  00 00 A8 17 FF FF 00
 (1742566822.114284)  can0  282   [6]  00 00 00 00 03 01
 (1742566822.114580)  can0  181   [7]  00 00 BE 01 FF FF 00
 (1742566822.114762)  can0  281   [6]  40 00 D8 FF 03 01
 (1742566822.119183)  can0  182   [7]  00 00 A8 17 FF FF 00
 (1742566822.119397)  can0  282   [6]  00 00 00 00 03 01
 (1742566822.119599)  can0  181   [7]  00 00 BD 01 FF FF 00
 (1742566822.119824)  can0  281   [6]  16 00 EC FF 03 01
 (1742566822.120045)  can0  601   [8]  2B 43 40 00 52 FD 00 00
 (1742566822.120547)  can0  581   [8]  60 43 40 00 00 00 00 00
 (1742566822.124189)  can0  182   [7]  00 00 A8 17 FF FF 00
 (1742566822.124398)  can0  282   [6]  00 00 00 00 03 01
 (1742566822.124599)  can0  181   [7]  00 00 BD 01 FF FF 00
 (1742566822.124823)  can0  281   [6]  18 00 EC FF 04 01
 (1742566822.129191)  can0  182   [7]  00 00 A8 17 FF FF 00
 (1742566822.129350)  can0  282   [6]  00 00 00 00 04 01
 (1742566822.129603)  can0  181   [7]  00 00 BD 01 FF FF 00
 (1742566822.129758)  can0  281   [6]  1D 00 D8 FF 03 01
 (1742566822.129988)  can0  602   [8]  2B 43 40 00 7E FD 00 00
 (1742566822.131153)  can0  582   [8]  60 43 40 00 00 00 00 00
 (1742566822.134154)  can0  182   [7]  00 00 A8 17 FF FF 00
 (1742566822.134385)  can0  282   [6]  00 00 00 00 04 01
 (1742566822.134627)  can0  181   [7]  00 00 BD 01 FF FF 00
 (1742566822.134815)  can0  281   [6]  5F 00 D8 FF 03 01
 (1742566822.139149)  can0  182   [7]  00 00 A8 17 FF FF 00
 (1742566822.139314)  can0  282   [6]  00 00 F4 FF 03 01
 (1742566822.139592)  can0  181   [7]  00 00 BD 01 FF FF 00
 (1742566822.139773)  can0  281   [6]  6E 00 D7 FF 03 01
 (1742566822.144157)  can0  182   [7]  00 00 A8 17 FF FF 00
 (1742566822.144367)  can0  282   [6]  0E 00 ED FF 03 01
 (1742566822.144577)  can0  181   [7]  00 00 BD 01 FF FF 00
 (1742566822.144767)  can0  281   [6]  4A 00 D7 FF 03 01
 (1742566822.149184)  can0  182   [7]  00 00 A8 17 FF FF 00
 (1742566822.149359)  can0  282   [6]  1F 00 ED FF 03 01
 (1742566822.149554)  can0  181   [7]  00 00 BD 01 FF FF 00
 (1742566822.149776)  can0  281   [6]  3A 00 CB FF 04 01
 (1742566822.154166)  can0  182   [7]  00 00 A8 17 FF FF 00
 (1742566822.154363)  can0  282   [6]  10 00 EC FF 03 01
 (1742566822.154549)  can0  181   [7]  E4 FE BC 01 FF FF 00
 (1742566822.154746)  can0  281   [6]  38 00 D7 FF 04 01
 (1742566822.159187)  can0  182   [7]  00 00 A8 17 FF FF 00
 (1742566822.159354)  can0  282   [6]  0A 00 EC FF 03 01
 (1742566822.159555)  can0  181   [7]  E4 FE BC 01 FF FF 00
 (1742566822.159766)  can0  281   [6]  38 00 D7 FF 04 01
 (1742566822.164174)  can0  182   [7]  00 00 A7 17 FF FF 00
 (1742566822.164374)  can0  282   [6]  0A 00 00 00 03 01
 (1742566822.164579)  can0  181   [7]  E4 FE BC 01 FF FF 00
 (1742566822.164818)  can0  281   [6]  38 00 D7 FF 04 01
 (1742566822.169154)  can0  182   [7]  00 00 A7 17 FF FF 00
 (1742566822.169351)  can0  282   [6]  02 00 F7 FF 04 01
 (1742566822.169560)  can0  181   [7]  E4 FE BC 01 FF FF 00
 (1742566822.169793)  can0  281   [6]  38 00 C3 FF 04 01
 (1742566822.174187)  can0  182   [7]  00 00 A7 17 FF FF 00
 (1742566822.174394)  can0  282   [6]  04 00 EC FF 03 01
 (1742566822.174617)  can0  181   [7]  A7 FE BB 01 FF FF 00
 (1742566822.174801)  can0  281   [6]  40 00 D7 FF 04 01
 (1742566822.179185)  can0  182   [7]  00 00 A7 17 FF FF 00
 (1742566822.179333)  can0  282   [6]  08 00 EC FF 03 01
 (1742566822.179541)  can0  181   [7]  A7 FE BB 01 FF FF 00
 (1742566822.179795)  can0  281   [6]  40 00 D7 FF 03 01
 (1742566822.184152)  can0  182   [7]  00 00 A7 17 FF FF 00
 (1742566822.184350)  can0  282   [6]  06 00 EC FF 03 01
 (1742566822.184541)  can0  181   [7]  A7 FE BB 01 FF FF 00
 (1742566822.184816)  can0  281   [6]  40 00 C2 FF 03 01
 (1742566822.184999)  can0  601   [8]  2B 43 40 00 3A FC 00 00
 (1742566822.185534)  can0  581   [8]  60 43 40 00 00 00 00 00
 (1742566822.189166)  can0  182   [7]  00 00 A7 17 FF FF 00
 (1742566822.189374)  can0  282   [6]  00 00 EC FF 03 01
 (1742566822.189591)  can0  181   [7]  A7 FE BB 01 FF FF 00
 (1742566822.189799)  can0  281   [6]  40 00 C2 FF 03 01
 (1742566822.194155)  can0  182   [7]  00 00 A7 17 FF FF 00
 (1742566822.194375)  can0  282   [6]  02 00 D8 FF 03 01
 (1742566822.194607)  can0  181   [7]  7E FE BA 01 FF FF 00
 (1742566822.194794)  can0  281   [6]  4D 00 D6 FF 03 01
 (1742566822.195020)  can0  602   [8]  2B 43 40 00 3A FC 00 00
 (1742566822.196151)  can0  582   [8]  60 43 40 00 00 00 00 00
 (1742566822.199163)  can0  182   [7]  00 00 A7 17 FF FF 00
 (1742566822.199345)  can0  282   [6]  2F 00 D8 FF 03 01
 (1742566822.199565)  can0  181   [7]  7E FE BA 01 FF FF 00
 (1742566822.199770)  can0  281   [6]  4D 00 C8 FF 03 01
 (1742566822.204151)  can0  182   [7]  00 00 A7 17 FF FF 00
 (1742566822.204394)  can0  282   [6]  4F 00 D8 FF 03 01
 (1742566822.204571)  can0  181   [7]  7E FE BA 01 FF FF 00
 (1742566822.204800)  can0  281   [6]  4D 00 C2 FF 03 01
 (1742566822.209152)  can0  182   [7]  00 00 A7 17 FF FF 00
 (1742566822.209327)  can0  282   [6]  46 00 D8 FF 03 01
 (1742566822.209525)  can0  181   [7]  7E FE BA 01 FF FF 00
 (1742566822.209753)  can0  281   [6]  4D 00 C2 FF 03 01
 (1742566822.214156)  can0  182   [7]  00 00 A7 17 FF FF 00
 (1742566822.214355)  can0  282   [6]  40 00 C4 FF 03 01
 (1742566822.214565)  can0  181   [7]  61 FE B9 01 FF FF 00
 (1742566822.214745)  can0  281   [6]  4A 00 C2 FF 03 01
 (1742566822.219154)  can0  182   [7]  45 FF A6 17 FF FF 00
 (1742566822.219343)  can0  282   [6]  40 00 D8 FF 03 01
 (1742566822.219571)  can0  181   [7]  61 FE B9 01 FF FF 00
 (1742566822.219773)  can0  281   [6]  4A 00 C1 FF 03 01
 (1742566822.224154)  can0  182   [7]  45 FF A6 17 FF FF 00
 (1742566822.224376)  can0  282   [6]  40 00 D8 FF 03 01
 (1742566822.224599)  can0  181   [7]  61 FE B9 01 FF FF 00
 (1742566822.224795)  can0  281   [6]  4A 00 BF FF 03 01
 (1742566822.229151)  can0  182   [7]  45 FF A6 17 FF FF 00
 (1742566822.229374)  can0  282   [6]  40 00 D7 FF 03 01
 (1742566822.229597)  can0  181   [7]  44 FE B8 01 FF FF 00
 (1742566822.229800)  can0  281   [6]  44 00 C1 FF 03 01
 (1742566822.234151)  can0  182   [7]  45 FF A6 17 FF FF 00
 (1742566822.234325)  can0  282   [6]  40 00 C3 FF 03 01
 (1742566822.234572)  can0  181   [7]  44 FE B8 01 FF FF 00
 (1742566822.234767)  can0  281   [6]  44 00 C1 FF 03 01
 (1742566822.239152)  can0  182   [7]  F7 FE A5 17 FF FF 00
 (1742566822.239349)  can0  282   [6]  3C 00 D7 FF 03 01
 (1742566822.239547)  can0  181   [7]  44 FE B8 01 FF FF 00
 (1742566822.239770)  can0  281   [6]  44 00 AD FF 03 01
 (1742566822.244151)  can0  182   [7]  F7 FE A5 17 FF FF 00
 (1742566822.244351)  can0  282   [6]  3C 00 D7 FF 03 01
 (1742566822.244573)  can0  181   [7]  27 FE B7 01 FF FF 00
 (1742566822.244773)  can0  281   [6]  46 00 C1 FF 03 01
 (1742566822.249152)  can0  182   [7]  F7 FE A5 17 FF FF 00
 (1742566822.249352)  can0  282   [6]  3C 00 C3 FF 03 01
 (1742566822.249543)  can0  181   [7]  27 FE B7 01 FF FF 00
 (1742566822.249766)  can0  281   [6]  46 00 B0 FF 03 01
 (1742566822.250016)  can0  601   [8]  2B 43 40 00 0E FB 00 00
 (1742566822.250546)  can0  581   [8]  60 43 40 00 00 00 00 00
 (1742566822.254159)  can0  182   [7]  F7 FE A5 17 FF FF 00
 (1742566822.254346)  can0  282   [6]  3C 00 C3 FF 03 01
 (1742566822.254547)  can0  181   [7]  27 FE B7 01 FF FF 00
 (1742566822.254747)  can0  281   [6]  46 00 AC FF 03 01
 (1742566822.259152)  can0  182   [7]  F7 FE A5 17 FF FF 00
 (1742566822.259335)  can0  282   [6]  3C 00 C3 FF 03 01
 (1742566822.259548)  can0  181   [7]  13 FE B6 01 FF FF 00
 (1742566822.259775)  can0  281   [6]  48 00 BF FF 03 01
 (1742566822.259993)  can0  602   [8]  2B 43 40 00 0E FB 00 00
 (1742566822.261165)  can0  582   [8]  60 43 40 00 00 00 00 00
 (1742566822.264161)  can0  182   [7]  D7 FE A4 17 FF FF 00
 (1742566822.264321)  can0  282   [6]  36 00 C2 FF 03 01
 (1742566822.264548)  can0  181   [7]  13 FE B6 01 FF FF 00
 (1742566822.264747)  can0  281   [6]  48 00 AC FF 03 01
 (1742566822.269152)  can0  182   [7]  D7 FE A4 17 FF FF 00
 (1742566822.269331)  can0  282   [6]  36 00 C2 FF 03 01
 (1742566822.269554)  can0  181   [7]  13 FE B6 01 FF FF 00
 (1742566822.269767)  can0  281   [6]  48 00 AC FF 03 01
 (1742566822.274151)  can0  182   [7]  D7 FE A4 17 FF FF 00
 (1742566822.274341)  can0  282   [6]  36 00 C2 FF 03 01
 (1742566822.274586)  can0  181   [7]  FA FD B5 01 FF FF 00
 (1742566822.274765)  can0  281   [6]  44 00 AB FF 03 01
 (1742566822.279151)  can0  182   [7]  A8 FE A3 17 FF FF 00
 (1742566822.279371)  can0  282   [6]  2D 00 C2 FF 03 01
 (1742566822.279573)  can0  181   [7]  FA FD B5 01 FF FF 00
 (1742566822.279795)  can0  281   [6]  44 00 AB FF 03 01
 (1742566822.284155)  can0  182   [7]  A8 FE A3 17 FF FF 00
 (1742566822.284328)  can0  282   [6]  2D 00 C2 FF 03 01
 (1742566822.284542)  can0  181   [7]  E2 FD B4 01 FF FF 00
 (1742566822.284774)  can0  281   [6]  40 00 AB FF 03 01
 (1742566822.289151)  can0  182   [7]  A8 FE A3 17 FF FF 00
 (1742566822.289329)  can0  282   [6]  2D 00 C2 FF 03 01
 (1742566822.289552)  can0  181   [7]  E2 FD B4 01 FF FF 00
 (1742566822.289746)  can0  281   [6]  40 00 AB FF 03 01
 (1742566822.294152)  can0  182   [7]  A8 FE A3 17 FF FF 00
 (1742566822.294353)  can0  282   [6]  2D 00 AE FF 03 01
 (1742566822.294565)  can0  181   [7]  CD FD B3 01 FF FF 00
 (1742566822.294766)  can0  281   [6]  3E 00 AB FF 03 01
 (1742566822.299154)  can0  182   [7]  89 FE A2 17 FF FF 00
 (1742566822.299365)  can0  282   [6]  2B 00 C1 FF 03 01
 (1742566822.299564)  can0  181   [7]  CD FD B3 01 FF FF 00
 (1742566822.299810)  can0  281   [6]  3E 00 AA FF 03 01
 (1742566822.304153)  can0  182   [7]  89 FE A2 17 FF FF 00
 (1742566822.304328)  can0  282   [6]  2B 00 AD FF 03 01
 (1742566822.304564)  can0  181   [7]  CD FD B2 01 FF FF 00
 (1742566822.304747)  can0  281   [6]  3E 00 96 FF 03 01
 (1742566822.309150)  can0  182   [7]  66 FE A1 17 FF FF 00
 (1742566822.309347)  can0  282   [6]  29 00 C1 FF 03 01
 (1742566822.309570)  can0  181   [7]  B9 FD B2 01 FF FF 00
 (1742566822.309765)  can0  281   [6]  3C 00 A5 FF 03 01
 (1742566822.314157)  can0  182   [7]  66 FE A1 17 FF FF 00
 (1742566822.314366)  can0  282   [6]  29 00 B4 FF 03 01
 (1742566822.314572)  can0  181   [7]  B9 FD B2 01 FF FF 00
 (1742566822.314796)  can0  281   [6]  3C 00 96 FF 03 01
 (1742566822.315017)  can0  601   [8]  2B 43 40 00 DE F9 00 00
 (1742566822.315546)  can0  581   [8]  60 43 40 00 00 00 00 00
 (1742566822.319150)  can0  182   [7]  66 FE A1 17 FF FF 00
 (1742566822.319353)  can0  282   [6]  29 00 AD FF 03 01
 (1742566822.319548)  can0  181   [7]  A7 FD B1 01 FF FF 00
 (1742566822.319781)  can0  281   [6]  3A 00 A2 FF 03 01
 (1742566822.324152)  can0  182   [7]  66 FE A0 17 FF FF 00
 (1742566822.324367)  can0  282   [6]  29 00 AC FF 03 01
 (1742566822.324566)  can0  181   [7]  A7 FD B1 01 FF FF 00
 (1742566822.324768)  can0  281   [6]  3A 00 95 FF 03 01
 (1742566822.324991)  can0  602   [8]  2B 43 40 00 DE F9 00 00
 (1742566822.326150)  can0  582   [8]  60 43 40 00 00 00 00 00
 (1742566822.329152)  can0  182   [7]  52 FE A0 17 FF FF 00
 (1742566822.329351)  can0  282   [6]  29 00 AC FF 03 01
 (1742566822.329566)  can0  181   [7]  53 FD B0 01 FF FF 00
 (1742566822.329765)  can0  281   [6]  3A 00 95 FF 03 01
 (1742566822.334067)  can0  182   [7]  52 FE A0 17 FF FF 00
 (1742566822.334333)  can0  282   [6]  29 00 AC FF 03 01
 (1742566822.334518)  can0  181   [7]  53 FD B0 01 FF FF 00
 (1742566822.334722)  can0  281   [6]  3A 00 95 FF 03 01
 (1742566822.339150)  can0  182   [7]  34 FE 9F 17 FF FF 00
 (1742566822.339355)  can0  282   [6]  29 00 AC FF 03 01
 (1742566822.339540)  can0  181   [7]  1B FD AF 01 FF FF 00
 (1742566822.339747)  can0  281   [6]  36 00 94 FF 03 01
 (1742566822.344152)  can0  182   [7]  34 FE 9F 17 FF FF 00
 (1742566822.344359)  can0  282   [6]  29 00 AC FF 03 01
 (1742566822.344566)  can0  181   [7]  1B FD AE 01 FF FF 00
 (1742566822.344770)  can0  281   [6]  36 00 80 FF 03 01
 (1742566822.349150)  can0  182   [7]  1F FE 9E 17 FF FF 00
 (1742566822.349328)  can0  282   [6]  29 00 AB FF 03 01
 (1742566822.349555)  can0  181   [7]  E8 FC AE 01 FF FF 00
 (1742566822.349770)  can0  281   [6]  2F 00 94 FF 03 01
 (1742566822.354151)  can0  182   [7]  1F FE 9E 17 FF FF 00
 (1742566822.354351)  can0  282   [6]  29 00 AB FF 03 01
 (1742566822.354542)  can0  181   [7]  B3 FC AD 01 FF FF 00
 (1742566822.354775)  can0  281   [6]  2D 00 94 FF 03 01
 (1742566822.359166)  can0  182   [7]  1F FE 9D 17 FF FF 00
 (1742566822.359358)  can0  282   [6]  29 00 97 FF 03 01
 (1742566822.359574)  can0  181   [7]  B3 FC AD 01 FF FF 00
 (1742566822.359797)  can0  281   [6]  2D 00 93 FF 03 01
 (1742566822.364175)  can0  182   [7]  05 FE 9D 17 FF FF 00
 (1742566822.364358)  can0  282   [6]  27 00 AB FF 03 01
 (1742566822.364551)  can0  181   [7]  83 FC AC 01 FF FF 00
 (1742566822.364750)  can0  281   [6]  2D 00 93 FF 03 01
 (1742566822.369152)  can0  182   [7]  05 FE 9D 17 FF FF 00
 (1742566822.369347)  can0  282   [6]  27 00 97 FF 03 01
 (1742566822.369549)  can0  181   [7]  83 FC AC 01 FF FF 00
 (1742566822.369738)  can0  281   [6]  2D 00 7F FF 03 01
 (1742566822.374154)  can0  182   [7]  F4 FD 9C 17 FF FF 00
 (1742566822.374324)  can0  282   [6]  27 00 AA FF 03 01
 (1742566822.374552)  can0  181   [7]  5B FC AB 01 FF FF 00
 (1742566822.374738)  can0  281   [6]  29 00 93 FF 03 01
 (1742566822.379151)  can0  182   [7]  F4 FD 9C 17 FF FF 00
 (1742566822.379350)  can0  282   [6]  27 00 96 FF 03 01
 (1742566822.379568)  can0  181   [7]  5B FC AA 01 FF FF 00
 (1742566822.379765)  can0  281   [6]  29 00 7E FF 03 01
 (1742566822.379997)  can0  601   [8]  2B 43 40 00 B6 F8 00 00
 (1742566822.380548)  can0  581   [8]  60 43 40 00 00 00 00 00
 (1742566822.384154)  can0  182   [7]  DB FD 9B 17 FF FF 00
 (1742566822.384370)  can0  282   [6]  27 00 96 FF 03 01
 (1742566822.384571)  can0  181   [7]  2D FC AA 01 FF FF 00
 (1742566822.384773)  can0  281   [6]  27 00 7E FF 03 01
 (1742566822.389154)  can0  182   [7]  DB FD 9B 17 FF FF 00
 (1742566822.389353)  can0  282   [6]  27 00 96 FF 03 01
 (1742566822.389578)  can0  181   [7]  07 FC A9 01 FF FF 00
 (1742566822.389778)  can0  281   [6]  29 00 92 FF 03 01
 (1742566822.389994)  can0  602   [8]  2B 43 40 00 B6 F8 00 00
 (1742566822.391153)  can0  582   [8]  60 43 40 00 00 00 00 00
 (1742566822.394153)  can0  182   [7]  5B FD 9A 17 FF FF 00
 (1742566822.394321)  can0  282   [6]  25 00 95 FF 03 01
 (1742566822.394564)  can0  181   [7]  07 FC A9 01 FF FF 00
 (1742566822.394750)  can0  281   [6]  29 00 7E FF 03 01
 (1742566822.399151)  can0  182   [7]  5B FD 9A 17 FF FF 00
 (1742566822.399336)  can0  282   [6]  25 00 95 FF 03 01
 (1742566822.399546)  can0  181   [7]  E5 FB A8 01 FF FF 00
 (1742566822.399769)  can0  281   [6]  29 00 7E FF 03 01
 (1742566822.404056)  can0  182   [7]  23 FD 99 17 FF FF 00
 (1742566822.404343)  can0  282   [6]  25 00 95 FF 03 01
 (1742566822.404524)  can0  181   [7]  E5 FB A7 01 FF FF 00
 (1742566822.404719)  can0  281   [6]  29 00 7E FF 03 01
 (1742566822.409080)  can0  182   [7]  23 FD 99 17 FF FF 00
 (1742566822.409319)  can0  282   [6]  25 00 95 FF 03 01
 (1742566822.409552)  can0  181   [7]  C7 FB A7 01 FF FF 00
 (1742566822.409747)  can0  281   [6]  2B 00 7E FF 03 01
 (1742566822.414155)  can0  182   [7]  DA FC 98 17 FF FF 00
 (1742566822.414349)  can0  282   [6]  25 00 94 FF 03 01
 (1742566822.414571)  can0  181   [7]  A8 FB A6 01 FF FF 00
 (1742566822.414772)  can0  281   [6]  2D 00 7E FF 03 01
 (1742566822.419152)  can0  182   [7]  DA FC 97 17 FF FF 00
 (1742566822.419324)  can0  282   [6]  25 00 80 FF 03 01
 (1742566822.419551)  can0  181   [7]  A8 FB A5 01 FF FF 00
 (1742566822.419746)  can0  281   [6]  2D 00 6A FF 03 01
 (1742566822.424152)  can0  182   [7]  B0 FC 97 17 FF FF 00
 (1742566822.424356)  can0  282   [6]  27 00 94 FF 03 01
 (1742566822.424580)  can0  181   [7]  85 FB A5 01 FF FF 00
 (1742566822.424786)  can0  281   [6]  2D 00 7E FF 03 01
 (1742566822.429155)  can0  182   [7]  B0 FC 96 17 FF FF 00
 (1742566822.429337)  can0  282   [6]  27 00 7F FF 03 01
 (1742566822.429545)  can0  181   [7]  5E FB A4 01 FF FF 00
 (1742566822.429740)  can0  281   [6]  2D 00 7E FF 03 01
 (1742566822.434150)  can0  182   [7]  82 FC 96 17 FF FF 00
 (1742566822.434369)  can0  282   [6]  27 00 7F FF 03 01
 (1742566822.434567)  can0  181   [7]  5E FB A3 01 FF FF 00
 (1742566822.434767)  can0  281   [6]  2D 00 6A FF 03 01
 (1742566822.439160)  can0  182   [7]  5A FC 95 17 FF FF 00
 (1742566822.439328)  can0  282   [6]  29 00 93 FF 03 01
 (1742566822.439546)  can0  181   [7]  42 FB A3 01 FF FF 00
 (1742566822.439740)  can0  281   [6]  2F 00 6A FF 03 01
 (1742566822.444150)  can0  182   [7]  5A FC 95 17 FF FF 00
 (1742566822.444337)  can0  282   [6]  29 00 7F FF 03 01
 (1742566822.444575)  can0  181   [7]  24 FB A2 01 FF FF 00
 (1742566822.444769)  can0  281   [6]  2D 00 7E FF 03 01
 (1742566822.444994)  can0  601   [8]  2B 43 40 00 A8 F7 00 00
 (1742566822.445542)  can0  581   [8]  60 43 40 00 00 00 00 00
 (1742566822.449154)  can0  182   [7]  28 FC 94 17 FF FF 00
 (1742566822.449364)  can0  282   [6]  29 00 7E FF 03 01
 (1742566822.449564)  can0  181   [7]  0B FB A1 01 FF FF 00
 (1742566822.449765)  can0  281   [6]  2F 00 7E FF 03 01
 (1742566822.454151)  can0  182   [7]  07 FC 93 17 FF FF 00
 (1742566822.454324)  can0  282   [6]  2B 00 92 FF 03 01
 (1742566822.454553)  can0  181   [7]  0B FB A1 01 FF FF 00
 (1742566822.454745)  can0  281   [6]  2F 00 6A FF 03 01
 (1742566822.454973)  can0  602   [8]  2B 43 40 00 A8 F7 00 00
 (1742566822.456150)  can0  582   [8]  60 43 40 00 00 00 00 00
 (1742566822.459150)  can0  182   [7]  07 FC 93 17 FF FF 00
 (1742566822.459322)  can0  282   [6]  2B 00 7E FF 03 01
 (1742566822.459549)  can0  181   [7]  F5 FA A0 01 FF FF 00
 (1742566822.459743)  can0  281   [6]  2F 00 6A FF 03 01
 (1742566822.464152)  can0  182   [7]  E2 FB 92 17 FF FF 00
 (1742566822.464343)  can0  282   [6]  2B 00 7E FF 03 01
 (1742566822.464564)  can0  181   [7]  DB FA 9F 01 FF FF 00
 (1742566822.464764)  can0  281   [6]  2F 00 6A FF 03 01
 (1742566822.469154)  can0  182   [7]  E2 FB 91 17 FF FF 00
 (1742566822.469356)  can0  282   [6]  2B 00 7E FF 03 01
 (1742566822.469547)  can0  181   [7]  DB FA 9E 01 FF FF 00
 (1742566822.469744)  can0  281   [6]  2F 00 6A FF 03 01
 (1742566822.474151)  can0  182   [7]  C4 FB 91 17 FF FF 00
 (1742566822.474319)  can0  282   [6]  2D 00 7E FF 03 01
 (1742566822.474541)  can0  181   [7]  C1 FA 9E 01 FF FF 00
 (1742566822.474739)  can0  281   [6]  2F 00 6A FF 03 01
 (1742566822.479052)  can0  182   [7]  9D FB 90 17 FF FF 00
 (1742566822.479337)  can0  282   [6]  2D 00 7E FF 03 01
 (1742566822.479520)  can0  181   [7]  AD FA 9D 01 FF FF 00
 (1742566822.479741)  can0  281   [6]  2F 00 6A FF 03 01
 (1742566822.484097)  can0  182   [7]  9D FB 90 17 FF FF 00
 (1742566822.484259)  can0  282   [6]  2D 00 6A FF 03 01
 (1742566822.484485)  can0  181   [7]  95 FA 9C 01 FF FF 00
 (1742566822.484684)  can0  281   [6]  2F 00 6A FF 02 01
 (1742566822.489091)  can0  182   [7]  85 FB 8F 17 FF FF 00
 (1742566822.489351)  can0  282   [6]  2D 00 7E FF 03 01
 (1742566822.489509)  can0  181   [7]  95 FA 9B 01 FF FF 00
 (1742566822.489710)  can0  281   [6]  2F 00 56 FF 02 01
 (1742566822.494088)  can0  182   [7]  5A FB 8E 17 FF FF 00
 (1742566822.494258)  can0  282   [6]  2F 00 7E FF 03 01
 (1742566822.494483)  can0  181   [7]  7A FA 9B 01 FF FF 00
 (1742566822.494683)  can0  281   [6]  2F 00 56 FF 02 01
 (1742566822.499088)  can0  182   [7]  5A FB 8D 17 FF FF 00
 (1742566822.499283)  can0  282   [6]  2F 00 6A FF 03 01
 (1742566822.499509)  can0  181   [7]  60 FA 9A 01 FF FF 00
 (1742566822.499709)  can0  281   [6]  2F 00 56 FF 03 01
 (1742566822.503989)  can0  182   [7]  42 FB 8D 17 FF FF 00
 (1742566822.504263)  can0  282   [6]  2F 00 6A FF 03 01
 (1742566822.504461)  can0  181   [7]  43 FA 99 01 FF FF 00
 (1742566822.504684)  can0  281   [6]  2D 00 6A FF 03 01
 (1742566822.509088)  can0  182   [7]  22 FB 8C 17 FF FF 00
 (1742566822.509260)  can0  282   [6]  2F 00 7E FF 03 01
 (1742566822.509484)  can0  181   [7]  31 FA 98 01 FF FF 00
 (1742566822.509684)  can0  281   [6]  2D 00 6A FF 03 01
 (1742566822.509909)  can0  601   [8]  2B 43 40 00 AC F6 00 00
 (1742566822.510414)  can0  581   [8]  60 43 40 00 00 00 00 00
 (1742566822.514088)  can0  182   [7]  09 FB 8B 17 FF FF 00
 (1742566822.514259)  can0  282   [6]  2F 00 7E FF 03 01
 (1742566822.514484)  can0  181   [7]  1B FA 97 01 FF FF 00
 (1742566822.514709)  can0  281   [6]  2D 00 6A FF 03 01
 (1742566822.519088)  can0  182   [7]  09 FB 8B 17 FF FF 00
 (1742566822.519284)  can0  282   [6]  2F 00 6A FF 03 01
 (1742566822.519484)  can0  181   [7]  1B FA 96 01 FF FF 00
 (1742566822.519684)  can0  281   [6]  2D 00 56 FF 03 01
 (1742566822.519908)  can0  602   [8]  2B 43 40 00 AC F6 00 00
 (1742566822.521088)  can0  582   [8]  60 43 40 00 00 00 00 00
 (1742566822.523989)  can0  182   [7]  F1 FA 8A 17 FF FF 00
 (1742566822.524263)  can0  282   [6]  2F 00 6A FF 03 01
 (1742566822.524485)  can0  181   [7]  07 FA 96 01 FF FF 00
 (1742566822.524684)  can0  281   [6]  2D 00 56 FF 03 01
 (1742566822.529088)  can0  182   [7]  DF FA 89 17 FF FF 00
 (1742566822.529259)  can0  282   [6]  2F 00 6A FF 03 01
 (1742566822.529484)  can0  181   [7]  F3 F9 95 01 FF FF 00
 (1742566822.529684)  can0  281   [6]  2D 00 56 FF 03 01
 (1742566822.534088)  can0  182   [7]  DF FA 89 17 FF FF 00
 (1742566822.534351)  can0  282   [6]  2F 00 6A FF 03 01
 (1742566822.534557)  can0  181   [7]  E0 F9 94 01 FF FF 00
 (1742566822.534710)  can0  281   [6]  2B 00 56 FF 03 01
 (1742566822.539088)  can0  182   [7]  C1 FA 88 17 FF FF 00
 (1742566822.539320)  can0  282   [6]  2F 00 6A FF 03 01
 (1742566822.539485)  can0  181   [7]  CD F9 93 01 FF FF 00
 (1742566822.539686)  can0  281   [6]  2B 00 56 FF 03 01
 (1742566822.544102)  can0  182   [7]  AC FA 87 17 FF FF 00
 (1742566822.544284)  can0  282   [6]  2F 00 6A FF 03 01
 (1742566822.544508)  can0  181   [7]  B7 F9 92 01 FF FF 00
 (1742566822.544709)  can0  281   [6]  2B 00 56 FF 03 01
 (1742566822.548989)  can0  182   [7]  8D FA 86 17 FF FF 00
 (1742566822.549262)  can0  282   [6]  2F 00 6A FF 03 01
 (1742566822.549459)  can0  181   [7]  B7 F9 91 01 FF FF 00
 (1742566822.549682)  can0  281   [6]  2B 00 42 FF 03 01
 (1742566822.554088)  can0  182   [7]  8D FA 85 17 FF FF 00
 (1742566822.554289)  can0  282   [6]  2F 00 56 FF 03 01
 (1742566822.554508)  can0  181   [7]  A0 F9 91 01 FF FF 00
 (1742566822.554708)  can0  281   [6]  2B 00 42 FF 03 01
 (1742566822.558988)  can0  182   [7]  77 FA 85 17 FF FF 00
 (1742566822.559263)  can0  282   [6]  2D 00 56 FF 03 01
 (1742566822.559459)  can0  181   [7]  8D F9 90 01 FF FF 00
 (1742566822.559658)  can0  281   [6]  2B 00 42 FF 03 01
 (1742566822.564088)  can0  182   [7]  5B FA 84 17 FF FF 00
 (1742566822.564284)  can0  282   [6]  2D 00 6A FF 03 01
 (1742566822.564509)  can0  181   [7]  73 F9 8F 01 FF FF 00
 (1742566822.564709)  can0  281   [6]  2B 00 42 FF 03 01
 (1742566822.569088)  can0  182   [7]  45 FA 83 17 FF FF 00
 (1742566822.569259)  can0  282   [6]  2D 00 6A FF 03 01
 (1742566822.569483)  can0  181   [7]  60 F9 8E 01 FF FF 00
 (1742566822.569683)  can0  281   [6]  2B 00 42 FF 03 01
 (1742566822.573988)  can0  182   [7]  31 FA 82 17 FF FF 00
 (1742566822.574263)  can0  282   [6]  2D 00 6A FF 03 01
 (1742566822.574485)  can0  181   [7]  52 F9 8D 01 FF FF 00
 (1742566822.574684)  can0  281   [6]  2B 00 42 FF 03 01
 (1742566822.574909)  can0  601   [8]  2B 43 40 00 C6 F5 00 00
 (1742566822.575463)  can0  581   [8]  60 43 40 00 00 00 00 00
 (1742566822.579088)  can0  182   [7]  31 FA 81 17 FF FF 00
 (1742566822.579284)  can0  282   [6]  2D 00 6A FF 03 01
 (1742566822.579508)  can0  181   [7]  3C F9 8C 01 FF FF 00
 (1742566822.579708)  can0  281   [6]  2B 00 42 FF 03 01
 (1742566822.584087)  can0  182   [7]  1A FA 81 17 FF FF 00
 (1742566822.584259)  can0  282   [6]  2B 00 56 FF 03 01
 (1742566822.584484)  can0  181   [7]  2A F9 8B 01 FF FF 00
 (1742566822.584684)  can0  281   [6]  2B 00 42 FF 03 01
 (1742566822.584908)  can0  602   [8]  2B 43 40 00 C6 F5 00 00
 (1742566822.586089)  can0  582   [8]  60 43 40 00 00 00 00 00
 (1742566822.589087)  can0  182   [7]  06 FA 80 17 FF FF 00
 (1742566822.589258)  can0  282   [6]  2B 00 56 FF 03 01
 (1742566822.589483)  can0  181   [7]  16 F9 8A 01 FF FF 00
 (1742566822.589683)  can0  281   [6]  2B 00 42 FF 02 01
 (1742566822.593987)  can0  182   [7]  F2 F9 7F 17 FF FF 00
 (1742566822.594262)  can0  282   [6]  2B 00 56 FF 03 01
 (1742566822.594459)  can0  181   [7]  03 F9 89 01 FF FF 00
 (1742566822.594658)  can0  281   [6]  2B 00 42 FF 02 01
 (1742566822.599087)  can0  182   [7]  D8 F9 7E 17 FF FF 00
 (1742566822.599258)  can0  282   [6]  2D 00 56 FF 03 01
 (1742566822.599483)  can0  181   [7]  ED F8 88 01 FF FF 00
 (1742566822.599708)  can0  281   [6]  2B 00 42 FF 02 01
 (1742566822.603988)  can0  182   [7]  BF F9 7D 17 FF FF 00
 (1742566822.604263)  can0  282   [6]  2D 00 56 FF 03 01
 (1742566822.604460)  can0  181   [7]  D7 F8 87 01 FF FF 00
 (1742566822.604658)  can0  281   [6]  2B 00 42 FF 02 01
 (1742566822.609087)  can0  182   [7]  BF F9 7C 17 FF FF 00
 (1742566822.609259)  can0  282   [6]  2D 00 42 FF 03 01
 (1742566822.609484)  can0  181   [7]  BF F8 86 01 FF FF 00
 (1742566822.609683)  can0  281   [6]  2B 00 42 FF 03 01
 (1742566822.613989)  can0  182   [7]  A8 F9 7B 17 FF FF 00
 (1742566822.614262)  can0  282   [6]  2B 00 42 FF 03 01
 (1742566822.614459)  can0  181   [7]  AD F8 85 01 FF FF 00
 (1742566822.614658)  can0  281   [6]  2B 00 42 FF 03 01
 (1742566822.619088)  can0  182   [7]  96 F9 7B 17 FF FF 00
 (1742566822.619258)  can0  282   [6]  2B 00 42 FF 03 01
 (1742566822.619458)  can0  181   [7]  96 F8 84 01 FF FF 00
 (1742566822.619658)  can0  281   [6]  2B 00 42 FF 02 01
 (1742566822.624088)  can0  182   [7]  7F F9 7A 17 FF FF 00
 (1742566822.624283)  can0  282   [6]  2B 00 42 FF 03 01
 (1742566822.624509)  can0  181   [7]  86 F8 83 01 FF FF 00
 (1742566822.624708)  can0  281   [6]  2D 00 42 FF 02 01
 (1742566822.629088)  can0  182   [7]  6D F9 79 17 FF FF 00
 (1742566822.629259)  can0  282   [6]  2B 00 42 FF 03 01
 (1742566822.629484)  can0  181   [7]  71 F8 82 01 FF FF 00
 (1742566822.629684)  can0  281   [6]  2D 00 42 FF 02 01
 (1742566822.633987)  can0  182   [7]  58 F9 78 17 FF FF 00
 (1742566822.634262)  can0  282   [6]  2D 00 42 FF 03 01
 (1742566822.634459)  can0  181   [7]  5E F8 81 01 FF FF 00
 (1742566822.634658)  can0  281   [6]  2D 00 42 FF 03 01
 (1742566822.639086)  can0  182   [7]  49 F9 77 17 FF FF 00
 (1742566822.639257)  can0  282   [6]  2D 00 42 FF 03 01
 (1742566822.639457)  can0  181   [7]  48 F8 80 01 FF FF 00
 (1742566822.639682)  can0  281   [6]  2B 00 42 FF 03 01
 (1742566822.639907)  can0  601   [8]  2B 43 40 00 F2 F4 00 00
 (1742566822.640411)  can0  581   [8]  60 43 40 00 00 00 00 00
 (1742566822.644088)  can0  182   [7]  34 F9 76 17 FF FF 00
 (1742566822.644258)  can0  282   [6]  2F 00 42 FF 03 01
 (1742566822.644483)  can0  181   [7]  38 F8 7F 01 FF FF 00
 (1742566822.644683)  can0  281   [6]  2B 00 2E FF 03 01
 (1742566822.649088)  can0  182   [7]  24 F9 75 17 FF FF 00
 (1742566822.649283)  can0  282   [6]  2F 00 42 FF 03 01
 (1742566822.649508)  can0  181   [7]  27 F8 7E 01 FF FF 00
 (1742566822.649708)  can0  281   [6]  2B 00 2E FF 03 01
 (1742566822.649934)  can0  602   [8]  2B 43 40 00 F2 F4 00 00
 (1742566822.651087)  can0  582   [8]  60 43 40 00 00 00 00 00
 (1742566822.654088)  can0  182   [7]  0F F9 74 17 FF FF 00
 (1742566822.654258)  can0  282   [6]  31 00 42 FF 03 01
 (1742566822.654483)  can0  181   [7]  12 F8 7D 01 FF FF 00
 (1742566822.654683)  can0  281   [6]  2B 00 2E FF 02 01
 (1742566822.659088)  can0  182   [7]  FE F8 73 17 FF FF 00
 (1742566822.659258)  can0  282   [6]  31 00 42 FF 03 01
 (1742566822.659483)  can0  181   [7]  03 F8 7C 01 FF FF 00
 (1742566822.659708)  can0  281   [6]  2D 00 2E FF 02 01
 (1742566822.664087)  can0  182   [7]  FE F8 72 17 FF FF 00
 (1742566822.664258)  can0  282   [6]  31 00 2E FF 03 01
 (1742566822.664459)  can0  181   [7]  F1 F7 7B 01 FF FF 00
 (1742566822.664683)  can0  281   [6]  2D 00 2E FF 02 01
 (1742566822.669088)  can0  182   [7]  DC F8 71 17 FF FF 00
 (1742566822.669258)  can0  282   [6]  34 00 42 FF 03 01
 (1742566822.669483)  can0  181   [7]  E2 F7 7A 01 FF FF 00
 (1742566822.669683)  can0  281   [6]  2B 00 2E FF 02 01
 (1742566822.674087)  can0  182   [7]  DC F8 70 17 FF FF 00
 (1742566822.674344)  can0  282   [6]  34 00 2E FF 03 01
 (1742566822.674484)  can0  181   [7]  D6 F7 79 01 FF FF 00
 (1742566822.674693)  can0  281   [6]  2D 00 1A FF 02 01
 (1742566822.679089)  can0  182   [7]  AF F8 6F 17 FF FF 00
 (1742566822.679357)  can0  282   [6]  36 00 42 FF 03 01
 (1742566822.679577)  can0  181   [7]  C3 F7 77 01 FF FF 00
 (1742566822.679792)  can0  281   [6]  2D 00 1A FF 02 01
 (1742566822.684187)  can0  182   [7]  AF F8 6E 17 FF FF 00
 (1742566822.684258)  can0  282   [6]  36 00 2E FF 03 01
 (1742566822.684531)  can0  181   [7]  B4 F7 76 01 FF FF 00
 (1742566822.684747)  can0  281   [6]  2D 00 1A FF 02 01
 (1742566822.689156)  can0  182   [7]  8E F8 6D 17 FF FF 00
 (1742566822.689380)  can0  282   [6]  38 00 42 FF 03 01
 (1742566822.689581)  can0  181   [7]  95 F7 75 01 FF FF 00
 (1742566822.689891)  can0  281   [6]  2D 00 2E FF 02 01
 (1742566822.694153)  can0  182   [7]  8E F8 6C 17 FF FF 00
 (1742566822.694259)  can0  282   [6]  38 00 2E FF 03 01
 (1742566822.694546)  can0  181   [7]  88 F7 74 01 FF FF 00
 (1742566822.694763)  can0  281   [6]  2F 00 2E FF 02 01
 (1742566822.699153)  can0  182   [7]  63 F8 6B 17 FF FF 00
 (1742566822.699309)  can0  282   [6]  38 00 42 FF 03 01
 (1742566822.699569)  can0  181   [7]  76 F7 73 01 FF FF 00
 (1742566822.699775)  can0  281   [6]  2F 00 1A FF 03 01
 (1742566822.704154)  can0  182   [7]  4F F8 6A 17 FF FF 00
 (1742566822.704265)  can0  282   [6]  3A 00 42 FF 03 01
 (1742566822.704552)  can0  181   [7]  64 F7 72 01 FF FF 00
 (1742566822.704763)  can0  281   [6]  31 00 1A FF 02 01
 (1742566822.704996)  can0  601   [8]  2B 43 40 00 2E F4 00 00
 (1742566822.705503)  can0  581   [8]  60 43 40 00 00 00 00 00
 (1742566822.709174)  can0  182   [7]  3C F8 69 17 FF FF 00
 (1742566822.709258)  can0  282   [6]  3A 00 2E FF 03 01
 (1742566822.709571)  can0  181   [7]  55 F7 71 01 FF FF 00
 (1742566822.709780)  can0  281   [6]  31 00 1A FF 02 01
 (1742566822.714056)  can0  182   [7]  23 F8 68 17 FF FF 00
 (1742566822.714350)  can0  282   [6]  38 00 2E FF 03 01
 (1742566822.714463)  can0  181   [7]  40 F7 6F 01 FF FF 00
 (1742566822.714729)  can0  281   [6]  31 00 1A FF 02 01
 (1742566822.714884)  can0  602   [8]  2B 43 40 00 2E F4 00 00
 (1742566822.716157)  can0  582   [8]  60 43 40 00 00 00 00 00
 (1742566822.719072)  can0  182   [7]  16 F8 67 17 FF FF 00
 (1742566822.719343)  can0  282   [6]  3A 00 2E FF 03 01
 (1742566822.719465)  can0  181   [7]  1F F7 6E 01 FF FF 00
 (1742566822.719719)  can0  281   [6]  31 00 1A FF 02 01
 (1742566822.724154)  can0  182   [7]  FF F7 66 17 FF FF 00
 (1742566822.724393)  can0  282   [6]  38 00 2E FF 03 01
 (1742566822.724592)  can0  181   [7]  0E F7 6D 01 FF FF 00
 (1742566822.724794)  can0  281   [6]  31 00 1A FF 03 01
 (1742566822.729052)  can0  182   [7]  EB F7 65 17 FF FF 00
 (1742566822.729331)  can0  282   [6]  36 00 2E FF 03 01
 (1742566822.729524)  can0  181   [7]  02 F7 6C 01 FF FF 00
 (1742566822.729747)  can0  281   [6]  31 00 1A FF 02 01
 (1742566822.734161)  can0  182   [7]  E2 F7 64 17 FF FF 00
 (1742566822.734375)  can0  282   [6]  36 00 2E FF 03 01
 (1742566822.734574)  can0  181   [7]  F0 F6 6B 01 FF FF 00
 (1742566822.734771)  can0  281   [6]  34 00 1A FF 02 01
 (1742566822.739064)  can0  182   [7]  D3 F7 63 17 FF FF 00
 (1742566822.739333)  can0  282   [6]  36 00 1A FF 03 01
 (1742566822.739534)  can0  181   [7]  E4 F6 69 01 FF FF 00
 (1742566822.739658)  can0  281   [6]  34 00 06 FF 02 01
 (1742566822.744150)  can0  182   [7]  BF F7 62 17 FF FF 00
 (1742566822.744289)  can0  282   [6]  36 00 1A FF 02 01
 (1742566822.744508)  can0  181   [7]  D7 F6 68 01 FF FF 00
 (1742566822.744708)  can0  281   [6]  34 00 1A FF 02 01
 (1742566822.749055)  can0  182   [7]  B5 F7 61 17 FF FF 00
 (1742566822.749299)  can0  282   [6]  36 00 1A FF 02 01
 (1742566822.749530)  can0  181   [7]  BB F6 67 01 FF FF 00
 (1742566822.749714)  can0  281   [6]  31 00 1A FF 02 01
 (1742566822.754055)  can0  182   [7]  97 F7 5F 17 FF FF 00
 (1742566822.754340)  can0  282   [6]  38 00 2E FF 03 01
 (1742566822.754530)  can0  181   [7]  A8 F6 66 01 FF FF 00
 (1742566822.754689)  can0  281   [6]  31 00 06 FF 02 01
 (1742566822.759152)  can0  182   [7]  84 F7 5E 17 FF FF 00
 (1742566822.759334)  can0  282   [6]  38 00 2E FF 02 01
 (1742566822.759552)  can0  181   [7]  9B F6 65 01 FF FF 00
 (1742566822.759683)  can0  281   [6]  31 00 06 FF 02 01
 (1742566822.764071)  can0  182   [7]  78 F7 5D 17 FF FF 00
 (1742566822.764332)  can0  282   [6]  38 00 1A FF 02 01
 (1742566822.764460)  can0  181   [7]  8E F6 63 01 FF FF 00
 (1742566822.764658)  can0  281   [6]  2F 00 06 FF 02 01
 (1742566822.769158)  can0  182   [7]  65 F7 5C 17 FF FF 00
 (1742566822.769291)  can0  282   [6]  38 00 1A FF 02 01
 (1742566822.769549)  can0  181   [7]  70 F6 62 01 FF FF 00
 (1742566822.769796)  can0  281   [6]  2F 00 06 FF 02 01
 (1742566822.770015)  can0  601   [8]  2B 43 40 00 84 F3 00 00
 (1742566822.770463)  can0  581   [8]  60 43 40 00 00 00 00 00
 (1742566822.774149)  can0  182   [7]  54 F7 5B 17 FF FF 00
 (1742566822.774376)  can0  282   [6]  3A 00 1A FF 02 01
 (1742566822.774588)  can0  181   [7]  67 F6 61 01 FF FF 00
 (1742566822.774709)  can0  281   [6]  2F 00 06 FF 02 01
 (1742566822.779049)  can0  182   [7]  47 F7 5A 17 FF FF 00
 (1742566822.779351)  can0  282   [6]  3C 00 1A FF 02 01
 (1742566822.779483)  can0  181   [7]  59 F6 5F 01 FF FF 00
 (1742566822.779728)  can0  281   [6]  2F 00 06 FF 02 01
 (1742566822.779955)  can0  602   [8]  2B 43 40 00 84 F3 00 00
 (1742566822.781049)  can0  582   [8]  60 43 40 00 00 00 00 00
 (1742566822.784167)  can0  182   [7]  3E F7 58 17 FF FF 00
 (1742566822.784308)  can0  282   [6]  3E 00 06 FF 02 01
 (1742566822.784579)  can0  181   [7]  3F F6 5E 01 FF FF 00
 (1742566822.784790)  can0  281   [6]  2D 00 06 FF 02 01
 (1742566822.789057)  can0  182   [7]  18 F7 57 17 FF FF 00
 (1742566822.789325)  can0  282   [6]  3E 00 1A FF 02 01
 (1742566822.789543)  can0  181   [7]  37 F6 5D 01 FF FF 00
 (1742566822.789745)  can0  281   [6]  2D 00 06 FF 02 01
 (1742566822.794052)  can0  182   [7]  07 F7 56 17 FF FF 00
 (1742566822.794327)  can0  282   [6]  3E 00 1A FF 02 01
 (1742566822.794566)  can0  181   [7]  2B F6 5C 01 FF FF 00
 (1742566822.794779)  can0  281   [6]  2F 00 06 FF 02 01
 (1742566822.799151)  can0  182   [7]  F5 F6 55 17 FF FF 00
 (1742566822.799257)  can0  282   [6]  3C 00 1A FF 02 01
 (1742566822.799535)  can0  181   [7]  1F F6 5A 01 FF FF 00
 (1742566822.799752)  can0  281   [6]  2F 00 F2 FE 02 01
 (1742566822.804149)  can0  182   [7]  E4 F6 53 17 FF FF 00
 (1742566822.804261)  can0  282   [6]  3C 00 06 FF 02 01
 (1742566822.804557)  can0  181   [7]  0A F6 59 01 FF FF 00
 (1742566822.804743)  can0  281   [6]  34 00 06 FF 02 01
 (1742566822.809149)  can0  182   [7]  D2 F6 52 17 FF FF 00
 (1742566822.809362)  can0  282   [6]  3C 00 06 FF 02 01
