 (1742566873.587064)  can0  182   [7]  96 FE 07 DD FE FF 00
 (1742566873.587283)  can0  181   [7]  6E FF F7 C3 FE FF 00
 (1742566873.587482)  can0  281   [6]  14 00 EA FF 03 01
 (1742566873.588711)  can0  282   [6]  1F 00 D8 FF 03 01
 (1742566873.592065)  can0  182   [7]  96 FE 07 DD FE FF 00
 (1742566873.592283)  can0  181   [7]  6E FF F7 C3 FE FF 00
 (1742566873.592507)  can0  281   [6]  14 00 EA FF 03 01
 (1742566873.592706)  can0  282   [6]  1F 00 D8 FF 03 01
 (1742566873.597064)  can0  182   [7]  96 FE 07 DD FE FF 00
 (1742566873.597283)  can0  181   [7]  6E FF F7 C3 FE FF 00
 (1742566873.597482)  can0  281   [6]  14 00 EA FF 03 01
 (1742566873.597682)  can0  282   [6]  1F 00 D8 FF 03 01
 (1742566873.598687)  can0  601   [8]  2B 43 40 00 6C FF 00 00
 (1742566873.599062)  can0  581   [8]  60 43 40 00 00 00 00 00
 (1742566873.602039)  can0  182   [7]  96 FE 07 DD FE FF 00
 (1742566873.602258)  can0  181   [7]  6E FF F6 C3 FE FF 00
 (1742566873.602482)  can0  282   [6]  1F 00 C4 FF 03 01
 (1742566873.602682)  can0  281   [6]  14 00 FE FF 03 01
 (1742566873.607064)  can0  182   [7]  95 FE 06 DD FE FF 00
 (1742566873.607284)  can0  181   [7]  6E FF F6 C3 FE FF 00
 (1742566873.607483)  can0  281   [6]  14 00 FE FF 03 01
 (1742566873.607707)  can0  282   [6]  1F 00 D8 FF 04 01
 (1742566873.608688)  can0  602   [8]  2B 43 40 00 95 FE 00 00
 (1742566873.609037)  can0  582   [8]  60 43 40 00 00 00 00 00
 (1742566873.612064)  can0  182   [7]  95 FE 06 DD FE FF 00
 (1742566873.612284)  can0  181   [7]  6E FF F6 C3 FE FF 00
 (1742566873.612481)  can0  281   [6]  14 00 FE FF 03 01
 (1742566873.612681)  can0  282   [6]  1F 00 D8 FF 03 01
 (1742566873.617063)  can0  182   [7]  95 FE 06 DD FE FF 00
 (1742566873.617282)  can0  181   [7]  6E FF F6 C3 FE FF 00
 (1742566873.617481)  can0  281   [6]  14 00 EA FF 03 01
 (1742566873.617706)  can0  282   [6]  1F 00 D8 FF 03 01
 (1742566873.622064)  can0  181   [7]  6E FF F6 C3 FE FF 00
 (1742566873.622308)  can0  182   [7]  95 FE 06 DD FE FF 00
 (1742566873.622508)  can0  281   [6]  14 00 EA FF 03 01
 (1742566873.622707)  can0  282   [6]  1F 00 D8 FF 03 01
 (1742566873.627012)  can0  182   [7]  95 FE 06 DD FE FF 00
 (1742566873.627234)  can0  181   [7]  6E FF F6 C3 FE FF 00
 (1742566873.627457)  can0  281   [6]  14 00 EA FF 03 01
 (1742566873.627657)  can0  282   [6]  1F 00 D8 FF 03 01
 (1742566873.632044)  can0  182   [7]  97 FE 05 DD FE FF 00
 (1742566873.632265)  can0  181   [7]  6E FF F6 C3 FE FF 00
 (1742566873.632486)  can0  281   [6]  14 00 EA FF 03 01
 (1742566873.632683)  can0  282   [6]  1F 00 D8 FF 03 01
 (1742566873.637063)  can0  182   [7]  97 FE 05 DD FE FF 00
 (1742566873.637284)  can0  181   [7]  6E FF F6 C3 FE FF 00
 (1742566873.637483)  can0  281   [6]  14 00 EA FF 03 01
 (1742566873.637683)  can0  282   [6]  1F 00 D8 FF 03 01
 (1742566873.642014)  can0  182   [7]  97 FE 05 DD FE FF 00
 (1742566873.642234)  can0  181   [7]  6E FF F6 C3 FE FF 00
 (1742566873.642433)  can0  281   [6]  14 00 EA FF 03 01
 (1742566873.642658)  can0  282   [6]  1F 00 D8 FF 03 01
 (1742566873.647013)  can0  182   [7]  97 FE 05 DD FE FF 00
 (1742566873.647234)  can0  181   [7]  6E FF F6 C3 FE FF 00
 (1742566873.647433)  can0  281   [6]  14 00 EA FF 03 01
 (1742566873.647658)  can0  282   [6]  1F 00 D8 FF 04 01
 (1742566873.652038)  can0  182   [7]  97 FE 05 DD FE FF 00
 (1742566873.652259)  can0  181   [7]  6E FF F6 C3 FE FF 00
 (1742566873.652483)  can0  281   [6]  14 00 EA FF 03 01
 (1742566873.652682)  can0  282   [6]  1F 00 D8 FF 03 01
 (1742566873.657063)  can0  182   [7]  97 FE 05 DD FE FF 00
 (1742566873.657284)  can0  181   [7]  6E FF F6 C3 FE FF 00
 (1742566873.657483)  can0  281   [6]  14 00 EA FF 03 01
 (1742566873.657708)  can0  282   [6]  1F 00 C4 FF 03 01
 (1742566873.662014)  can0  182   [7]  95 FE 04 DD FE FF 00
 (1742566873.662234)  can0  181   [7]  6E FF F6 C3 FE FF 00
 (1742566873.662458)  can0  281   [6]  14 00 EA FF 03 01
 (1742566873.662658)  can0  282   [6]  1F 00 D8 FF 03 01
 (1742566873.663712)  can0  601   [8]  2B 43 40 00 6C FF 00 00
 (1742566873.664087)  can0  581   [8]  60 43 40 00 00 00 00 00
 (1742566873.667040)  can0  182   [7]  95 FE 04 DD FE FF 00
 (1742566873.667284)  can0  181   [7]  6E FF F6 C3 FE FF 00
 (1742566873.667483)  can0  281   [6]  14 00 EA FF 03 01
 (1742566873.667683)  can0  282   [6]  1F 00 D8 FF 03 01
 (1742566873.672063)  can0  182   [7]  95 FE 04 DD FE FF 00
 (1742566873.672284)  can0  181   [7]  6E FF F6 C3 FE FF 00
 (1742566873.672508)  can0  281   [6]  14 00 EA FF 03 01
 (1742566873.672708)  can0  282   [6]  1F 00 D8 FF 03 01
 (1742566873.673687)  can0  602   [8]  2B 43 40 00 95 FE 00 00
 (1742566873.674062)  can0  582   [8]  60 43 40 00 00 00 00 00
 (1742566873.677038)  can0  182   [7]  95 FE 04 DD FE FF 00
 (1742566873.677259)  can0  181   [7]  6E FF F6 C3 FE FF 00
 (1742566873.677457)  can0  281   [6]  14 00 EA FF 03 01
 (1742566873.677682)  can0  282   [6]  1F 00 D8 FF 03 01
 (1742566873.682013)  can0  182   [7]  93 FE 03 DD FE FF 00
 (1742566873.682234)  can0  181   [7]  6D FF F5 C3 FE FF 00
 (1742566873.682432)  can0  282   [6]  1F 00 EC FF 03 01
 (1742566873.682632)  can0  281   [6]  14 00 EA FF 03 01
 (1742566873.687062)  can0  182   [7]  93 FE 03 DD FE FF 00
 (1742566873.687283)  can0  181   [7]  6D FF F5 C3 FE FF 00
 (1742566873.687506)  can0  281   [6]  14 00 EA FF 03 01
 (1742566873.687706)  can0  282   [6]  1F 00 D8 FF 03 01
 (1742566873.692012)  can0  182   [7]  93 FE 03 DD FE FF 00
 (1742566873.692363)  can0  181   [7]  6D FF F5 C3 FE FF 00
 (1742566873.692455)  can0  281   [6]  14 00 EA FF 03 01
 (1742566873.692656)  can0  282   [6]  1F 00 D8 FF 03 01
 (1742566873.697013)  can0  182   [7]  93 FE 03 DD FE FF 00
 (1742566873.697232)  can0  181   [7]  6D FF F5 C3 FE FF 00
 (1742566873.697455)  can0  281   [6]  14 00 EA FF 04 01
 (1742566873.698563)  can0  282   [6]  1F 00 D8 FF 03 01
 (1742566873.702037)  can0  182   [7]  93 FE 03 DD FE FF 00
 (1742566873.702257)  can0  181   [7]  6D FF F5 C3 FE FF 00
 (1742566873.702481)  can0  281   [6]  14 00 EA FF 04 01
 (1742566873.702681)  can0  282   [6]  1F 00 D8 FF 03 01
 (1742566873.707063)  can0  182   [7]  93 FE 03 DD FE FF 00
 (1742566873.707257)  can0  181   [7]  6D FF F5 C3 FE FF 00
 (1742566873.707482)  can0  281   [6]  14 00 EA FF 04 01
 (1742566873.707681)  can0  282   [6]  1F 00 D8 FF 04 01
 (1742566873.712013)  can0  182   [7]  93 FE 03 DD FE FF 00
 (1742566873.712234)  can0  181   [7]  6D FF F5 C3 FE FF 00
 (1742566873.712432)  can0  281   [6]  14 00 EA FF 04 01
 (1742566873.712632)  can0  282   [6]  1F 00 C4 FF 03 01
 (1742566873.717037)  can0  182   [7]  95 FE 02 DD FE FF 00
 (1742566873.717260)  can0  181   [7]  6D FF F5 C3 FE FF 00
 (1742566873.717457)  can0  281   [6]  14 00 EA FF 04 01
 (1742566873.717657)  can0  282   [6]  21 00 D8 FF 03 01
 (1742566873.722062)  can0  182   [7]  95 FE 02 DD FE FF 00
 (1742566873.722285)  can0  181   [7]  6D FF F5 C3 FE FF 00
 (1742566873.722482)  can0  281   [6]  14 00 EA FF 04 01
 (1742566873.722682)  can0  282   [6]  21 00 D8 FF 03 01
 (1742566873.727062)  can0  182   [7]  95 FE 02 DD FE FF 00
 (1742566873.727285)  can0  181   [7]  6D FF F5 C3 FE FF 00
 (1742566873.727509)  can0  281   [6]  14 00 EA FF 04 01
 (1742566873.727709)  can0  282   [6]  21 00 D8 FF 03 01
 (1742566873.728714)  can0  601   [8]  2B 43 40 00 6C FF 00 00
 (1742566873.729088)  can0  581   [8]  60 43 40 00 00 00 00 00
 (1742566873.732037)  can0  182   [7]  95 FE 02 DD FE FF 00
 (1742566873.732260)  can0  181   [7]  6D FF F5 C3 FE FF 00
 (1742566873.732459)  can0  281   [6]  14 00 EA FF 04 01
 (1742566873.732684)  can0  282   [6]  21 00 D8 FF 03 01
 (1742566873.737039)  can0  182   [7]  95 FE 02 DD FE FF 00
 (1742566873.737260)  can0  181   [7]  6D FF F5 C3 FE FF 00
 (1742566873.737459)  can0  281   [6]  14 00 EA FF 04 01
 (1742566873.737684)  can0  282   [6]  21 00 D8 FF 03 01
 (1742566873.738663)  can0  602   [8]  2B 43 40 00 95 FE 00 00
 (1742566873.739039)  can0  582   [8]  60 43 40 00 00 00 00 00
 (1742566873.742064)  can0  182   [7]  96 FE 01 DD FE FF 00
 (1742566873.742285)  can0  181   [7]  6D FF F5 C3 FE FF 00
 (1742566873.742511)  can0  281   [6]  14 00 EA FF 04 01
 (1742566873.742709)  can0  282   [6]  21 00 D8 FF 03 01
 (1742566873.747064)  can0  182   [7]  96 FE 01 DD FE FF 00
 (1742566873.747285)  can0  181   [7]  6D FF F4 C3 FE FF 00
 (1742566873.747484)  can0  281   [6]  14 00 FE FF 03 01
 (1742566873.747709)  can0  282   [6]  21 00 D8 FF 03 01
 (1742566873.752093)  can0  182   [7]  96 FE 01 DD FE FF 00
 (1742566873.752242)  can0  181   [7]  6D FF F4 C3 FE FF 00
 (1742566873.752490)  can0  281   [6]  14 00 EA FF 03 01
 (1742566873.752725)  can0  282   [6]  21 00 D8 FF 03 01
 (1742566873.757101)  can0  182   [7]  96 FE 01 DD FE FF 00
 (1742566873.757284)  can0  181   [7]  6D FF F4 C3 FE FF 00
 (1742566873.757514)  can0  281   [6]  14 00 EA FF 04 01
 (1742566873.757733)  can0  282   [6]  21 00 D8 FF 03 01
 (1742566873.762126)  can0  182   [7]  96 FE 01 DD FE FF 00
 (1742566873.762357)  can0  181   [7]  6D FF F4 C3 FE FF 00
 (1742566873.762465)  can0  281   [6]  14 00 EA FF 04 01
 (1742566873.762756)  can0  282   [6]  21 00 D8 FF 04 01
 (1742566873.767105)  can0  182   [7]  96 FE 01 DD FE FF 00
 (1742566873.767330)  can0  181   [7]  6D FF F4 C3 FE FF 00
 (1742566873.767512)  can0  281   [6]  14 00 EA FF 03 01
 (1742566873.767729)  can0  282   [6]  21 00 C4 FF 04 01
 (1742566873.772104)  can0  182   [7]  95 FE 00 DD FE FF 00
 (1742566873.772259)  can0  181   [7]  6D FF F4 C3 FE FF 00
 (1742566873.772514)  can0  282   [6]  21 00 D8 FF 03 01
 (1742566873.772716)  can0  281   [6]  14 00 EA FF 03 01
 (1742566873.777077)  can0  182   [7]  95 FE 00 DD FE FF 00
 (1742566873.777247)  can0  181   [7]  6D FF F4 C3 FE FF 00
 (1742566873.777536)  can0  281   [6]  14 00 EA FF 03 01
 (1742566873.777698)  can0  282   [6]  21 00 D8 FF 03 01
 (1742566873.782102)  can0  182   [7]  95 FE 00 DD FE FF 00
 (1742566873.782330)  can0  181   [7]  6D FF F4 C3 FE FF 00
 (1742566873.782533)  can0  281   [6]  14 00 EA FF 04 01
 (1742566873.782720)  can0  282   [6]  21 00 D8 FF 03 01
 (1742566873.787099)  can0  182   [7]  95 FE 00 DD FE FF 00
 (1742566873.787317)  can0  181   [7]  6D FF F4 C3 FE FF 00
 (1742566873.787470)  can0  281   [6]  14 00 EA FF 04 01
 (1742566873.787719)  can0  282   [6]  21 00 D8 FF 03 01
 (1742566873.792123)  can0  182   [7]  95 FE 00 DD FE FF 00
 (1742566873.792340)  can0  181   [7]  6D FF F4 C3 FE FF 00
 (1742566873.792538)  can0  281   [6]  14 00 EA FF 04 01
 (1742566873.792734)  can0  282   [6]  21 00 D8 FF 03 01
 (1742566873.793757)  can0  601   [8]  2B 43 40 00 6B FF 00 00
 (1742566873.794122)  can0  581   [8]  60 43 40 00 00 00 00 00
 (1742566873.797099)  can0  182   [7]  95 FE FF DC FE FF 00
 (1742566873.797312)  can0  181   [7]  6D FF F4 C3 FE FF 00
 (1742566873.797513)  can0  281   [6]  14 00 EA FF 04 01
 (1742566873.797721)  can0  282   [6]  21 00 D8 FF 03 01
 (1742566873.802114)  can0  182   [7]  95 FE FF DC FE FF 00
 (1742566873.802309)  can0  181   [7]  6D FF F4 C3 FE FF 00
 (1742566873.802557)  can0  281   [6]  14 00 EA FF 04 01
 (1742566873.802738)  can0  282   [6]  21 00 D8 FF 03 01
 (1742566873.803775)  can0  602   [8]  2B 43 40 00 94 FE 00 00
 (1742566873.804131)  can0  582   [8]  60 43 40 00 00 00 00 00
 (1742566873.807098)  can0  182   [7]  95 FE FF DC FE FF 00
 (1742566873.807320)  can0  181   [7]  6D FF F3 C3 FE FF 00
 (1742566873.807516)  can0  281   [6]  14 00 FE FF 04 01
 (1742566873.807745)  can0  282   [6]  21 00 D8 FF 04 01
 (1742566873.812126)  can0  182   [7]  95 FE FF DC FE FF 00
 (1742566873.812352)  can0  181   [7]  6D FF F3 C3 FE FF 00
 (1742566873.812546)  can0  281   [6]  14 00 FE FF 03 01
 (1742566873.812742)  can0  282   [6]  21 00 D8 FF 04 01
 (1742566873.817126)  can0  182   [7]  95 FE FF DC FE FF 00
 (1742566873.817361)  can0  181   [7]  6D FF F3 C3 FE FF 00
 (1742566873.817545)  can0  281   [6]  14 00 EA FF 03 01
 (1742566873.817742)  can0  282   [6]  21 00 D8 FF 04 01
 (1742566873.822083)  can0  182   [7]  95 FE FF DC FE FF 00
 (1742566873.822298)  can0  181   [7]  6D FF F3 C3 FE FF 00
 (1742566873.822509)  can0  281   [6]  14 00 EA FF 03 01
 (1742566873.822692)  can0  282   [6]  21 00 C4 FF 04 01
 (1742566873.827124)  can0  182   [7]  95 FE FE DC FE FF 00
 (1742566873.827312)  can0  181   [7]  6D FF F3 C3 FE FF 00
 (1742566873.827521)  can0  281   [6]  14 00 EA FF 03 01
 (1742566873.827753)  can0  282   [6]  21 00 D8 FF 03 01
 (1742566873.832098)  can0  182   [7]  95 FE FE DC FE FF 00
 (1742566873.832316)  can0  181   [7]  6D FF F3 C3 FE FF 00
 (1742566873.832559)  can0  281   [6]  14 00 EA FF 03 01
 (1742566873.832739)  can0  282   [6]  21 00 D8 FF 03 01
 (1742566873.837099)  can0  182   [7]  95 FE FE DC FE FF 00
 (1742566873.837317)  can0  181   [7]  6D FF F3 C3 FE FF 00
 (1742566873.837512)  can0  281   [6]  14 00 EA FF 03 01
 (1742566873.837764)  can0  282   [6]  21 00 D8 FF 03 01
 (1742566873.842125)  can0  182   [7]  95 FE FE DC FE FF 00
 (1742566873.842347)  can0  181   [7]  6D FF F3 C3 FE FF 00
 (1742566873.842483)  can0  281   [6]  14 00 EA FF 03 01
 (1742566873.842747)  can0  282   [6]  21 00 D8 FF 03 01
 (1742566873.847130)  can0  182   [7]  95 FE FD DC FE FF 00
 (1742566873.847365)  can0  181   [7]  6D FF F3 C3 FE FF 00
 (1742566873.847491)  can0  281   [6]  14 00 EA FF 03 01
 (1742566873.847770)  can0  282   [6]  21 00 D8 FF 03 01
 (1742566873.852096)  can0  182   [7]  94 FE FD DC FE FF 00
 (1742566873.852252)  can0  181   [7]  6D FF F3 C3 FE FF 00
 (1742566873.852514)  can0  281   [6]  14 00 EA FF 03 01
 (1742566873.852718)  can0  282   [6]  21 00 D8 FF 03 01
 (1742566873.857073)  can0  182   [7]  94 FE FD DC FE FF 00
 (1742566873.857328)  can0  181   [7]  6D FF F3 C3 FE FF 00
 (1742566873.857542)  can0  281   [6]  14 00 EA FF 03 01
 (1742566873.857666)  can0  282   [6]  21 00 D8 FF 03 01
 (1742566873.858748)  can0  601   [8]  2B 43 40 00 68 FF 00 00
 (1742566873.859133)  can0  581   [8]  60 43 40 00 00 00 00 00
 (1742566873.862127)  can0  182   [7]  94 FE FD DC FE FF 00
 (1742566873.862383)  can0  181   [7]  6D FF F3 C3 FE FF 00
 (1742566873.862489)  can0  281   [6]  14 00 EA FF 03 01
 (1742566873.862775)  can0  282   [6]  21 00 D8 FF 03 01
 (1742566873.867123)  can0  182   [7]  94 FE FD DC FE FF 00
 (1742566873.867341)  can0  181   [7]  6D FF F3 C3 FE FF 00
 (1742566873.867537)  can0  281   [6]  14 00 EA FF 03 01
 (1742566873.867682)  can0  282   [6]  21 00 D8 FF 03 01
 (1742566873.868759)  can0  602   [8]  2B 43 40 00 93 FE 00 00
 (1742566873.869098)  can0  582   [8]  60 43 40 00 00 00 00 00
 (1742566873.872057)  can0  182   [7]  94 FE FD DC FE FF 00
 (1742566873.872272)  can0  181   [7]  6D FF F3 C3 FE FF 00
 (1742566873.872487)  can0  281   [6]  14 00 EA FF 03 01
 (1742566873.872687)  can0  282   [6]  21 00 D8 FF 03 01
 (1742566873.877128)  can0  182   [7]  94 FE FD DC FE FF 00
 (1742566873.877358)  can0  181   [7]  6D FF F3 C3 FE FF 00
 (1742566873.877562)  can0  281   [6]  14 00 EA FF 03 01
 (1742566873.877761)  can0  282   [6]  21 00 C4 FF 03 01
 (1742566873.882107)  can0  182   [7]  95 FE FC DC FE FF 00
 (1742566873.882335)  can0  181   [7]  6D FF F3 C3 FE FF 00
 (1742566873.882532)  can0  281   [6]  14 00 EA FF 03 01
 (1742566873.882754)  can0  282   [6]  1F 00 D8 FF 03 01
 (1742566873.887101)  can0  182   [7]  95 FE FC DC FE FF 00
 (1742566873.887274)  can0  181   [7]  6D FF F2 C3 FE FF 00
 (1742566873.887537)  can0  281   [6]  14 00 EA FF 03 01
 (1742566873.887683)  can0  282   [6]  1F 00 D8 FF 03 01
 (1742566873.892124)  can0  182   [7]  95 FE FC DC FE FF 00
 (1742566873.892342)  can0  181   [7]  6D FF F2 C3 FE FF 00
 (1742566873.892548)  can0  281   [6]  14 00 EA FF 03 01
 (1742566873.892752)  can0  282   [6]  1F 00 D8 FF 03 01
 (1742566873.897124)  can0  182   [7]  95 FE FC DC FE FF 00
 (1742566873.897345)  can0  181   [7]  6D FF F2 C3 FE FF 00
 (1742566873.897554)  can0  281   [6]  14 00 EA FF 03 01
 (1742566873.897681)  can0  282   [6]  1F 00 D8 FF 03 01
 (1742566873.902094)  can0  182   [7]  95 FE FC DC FE FF 00
 (1742566873.902323)  can0  181   [7]  6D FF F2 C3 FE FF 00
 (1742566873.902457)  can0  281   [6]  14 00 EA FF 03 01
 (1742566873.902727)  can0  282   [6]  1F 00 D8 FF 03 01
 (1742566873.907075)  can0  182   [7]  94 FE FB DC FE FF 00
 (1742566873.907316)  can0  181   [7]  6D FF F2 C3 FE FF 00
 (1742566873.907520)  can0  281   [6]  14 00 EA FF 03 01
 (1742566873.907750)  can0  282   [6]  1F 00 D8 FF 03 01
 (1742566873.912108)  can0  182   [7]  94 FE FB DC FE FF 00
 (1742566873.912340)  can0  181   [7]  6D FF F2 C3 FE FF 00
 (1742566873.912542)  can0  281   [6]  14 00 EA FF 03 01
 (1742566873.912746)  can0  282   [6]  1F 00 D8 FF 03 01
 (1742566873.917100)  can0  182   [7]  94 FE FB DC FE FF 00
 (1742566873.917355)  can0  181   [7]  6D FF F2 C3 FE FF 00
 (1742566873.917555)  can0  281   [6]  14 00 EA FF 03 01
 (1742566873.917749)  can0  282   [6]  1F 00 D8 FF 03 01
 (1742566873.922073)  can0  182   [7]  94 FE FB DC FE FF 00
 (1742566873.922241)  can0  181   [7]  6D FF F2 C3 FE FF 00
 (1742566873.922494)  can0  281   [6]  14 00 EA FF 03 01
 (1742566873.922718)  can0  282   [6]  1F 00 D8 FF 03 01
 (1742566873.923756)  can0  601   [8]  2B 43 40 00 61 FF 00 00
 (1742566873.924129)  can0  581   [8]  60 43 40 00 00 00 00 00
 (1742566873.927072)  can0  182   [7]  94 FE FB DC FE FF 00
 (1742566873.927314)  can0  181   [7]  6D FF F2 C3 FE FF 00
 (1742566873.927533)  can0  281   [6]  14 00 EA FF 03 01
 (1742566873.927747)  can0  282   [6]  1F 00 D8 FF 03 01
 (1742566873.932099)  can0  182   [7]  94 FE FB DC FE FF 00
 (1742566873.932351)  can0  181   [7]  6D FF F2 C3 FE FF 00
 (1742566873.932575)  can0  281   [6]  14 00 EA FF 03 01
 (1742566873.932707)  can0  282   [6]  1F 00 C4 FF 03 01
 (1742566873.933753)  can0  602   [8]  2B 43 40 00 8E FE 00 00
 (1742566873.934079)  can0  582   [8]  60 43 40 00 00 00 00 00
 (1742566873.937099)  can0  182   [7]  95 FE FA DC FE FF 00
 (1742566873.937339)  can0  181   [7]  6D FF F2 C3 FE FF 00
 (1742566873.937562)  can0  282   [6]  1F 00 D8 FF 03 01
 (1742566873.937763)  can0  281   [6]  14 00 EA FF 03 01
 (1742566873.942077)  can0  182   [7]  95 FE FA DC FE FF 00
 (1742566873.942215)  can0  181   [7]  6D FF F2 C3 FE FF 00
 (1742566873.942490)  can0  281   [6]  14 00 EA FF 03 01
 (1742566873.942689)  can0  282   [6]  1F 00 D8 FF 03 01
 (1742566873.947125)  can0  182   [7]  95 FE FA DC FE FF 00
 (1742566873.947347)  can0  181   [7]  6D FF F2 C3 FE FF 00
 (1742566873.947569)  can0  281   [6]  14 00 EA FF 03 01
 (1742566873.947773)  can0  282   [6]  1F 00 D8 FF 03 01
 (1742566873.952076)  can0  182   [7]  95 FE FA DC FE FF 00
 (1742566873.952258)  can0  181   [7]  6D FF F1 C3 FE FF 00
 (1742566873.952496)  can0  281   [6]  14 00 EA FF 03 01
 (1742566873.952723)  can0  282   [6]  1F 00 D8 FF 04 01
 (1742566873.957077)  can0  182   [7]  95 FE F9 DC FE FF 00
 (1742566873.957322)  can0  181   [7]  6D FF F1 C3 FE FF 00
 (1742566873.957518)  can0  281   [6]  14 00 EA FF 03 01
 (1742566873.957715)  can0  282   [6]  1F 00 D8 FF 04 01
 (1742566873.962101)  can0  182   [7]  93 FE F9 DC FE FF 00
 (1742566873.962283)  can0  181   [7]  6D FF F1 C3 FE FF 00
 (1742566873.962555)  can0  281   [6]  14 00 EA FF 03 01
 (1742566873.962766)  can0  282   [6]  1D 00 D8 FF 04 01
 (1742566873.967100)  can0  182   [7]  93 FE F9 DC FE FF 00
 (1742566873.967368)  can0  181   [7]  6D FF F1 C3 FE FF 00
 (1742566873.967485)  can0  281   [6]  14 00 EA FF 03 01
 (1742566873.967753)  can0  282   [6]  1D 00 D8 FF 03 01
 (1742566873.972054)  can0  182   [7]  93 FE F9 DC FE FF 00
 (1742566873.972312)  can0  181   [7]  6D FF F1 C3 FE FF 00
 (1742566873.972548)  can0  281   [6]  14 00 EA FF 03 01
 (1742566873.972637)  can0  282   [6]  1D 00 D8 FF 03 01
 (1742566873.977076)  can0  182   [7]  93 FE F9 DC FE FF 00
 (1742566873.977336)  can0  181   [7]  6D FF F1 C3 FE FF 00
 (1742566873.977431)  can0  281   [6]  14 00 EA FF 03 01
 (1742566873.977729)  can0  282   [6]  1D 00 D8 FF 04 01
 (1742566873.982098)  can0  182   [7]  93 FE F9 DC FE FF 00
 (1742566873.982363)  can0  181   [7]  6D FF F1 C3 FE FF 00
 (1742566873.982456)  can0  281   [6]  14 00 EA FF 03 01
 (1742566873.982754)  can0  282   [6]  1D 00 D8 FF 04 01
 (1742566873.987098)  can0  182   [7]  93 FE F9 DC FE FF 00
 (1742566873.987369)  can0  181   [7]  6D FF F1 C3 FE FF 00
 (1742566873.987507)  can0  281   [6]  14 00 EA FF 03 01
 (1742566873.987748)  can0  282   [6]  1D 00 C4 FF 03 01
 (1742566873.988760)  can0  601   [8]  2B 43 40 00 55 FF 00 00
 (1742566873.989129)  can0  581   [8]  60 43 40 00 00 00 00 00
 (1742566873.992098)  can0  182   [7]  94 FE F8 DC FE FF 00
 (1742566873.992335)  can0  181   [7]  6D FF F1 C3 FE FF 00
 (1742566873.992537)  can0  281   [6]  14 00 EA FF 03 01
 (1742566873.992738)  can0  282   [6]  1F 00 D8 FF 03 01
 (1742566873.997097)  can0  182   [7]  94 FE F8 DC FE FF 00
 (1742566873.997284)  can0  181   [7]  6D FF F1 C3 FE FF 00
 (1742566873.997518)  can0  281   [6]  14 00 EA FF 03 01
 (1742566873.997745)  can0  282   [6]  1F 00 D8 FF 03 01
 (1742566873.998748)  can0  602   [8]  2B 43 40 00 88 FE 00 00
 (1742566873.999068)  can0  582   [8]  60 43 40 00 00 00 00 00
 (1742566874.002118)  can0  182   [7]  94 FE F8 DC FE FF 00
 (1742566874.002265)  can0  181   [7]  6D FF F1 C3 FE FF 00
 (1742566874.002549)  can0  281   [6]  14 00 EA FF 03 01
 (1742566874.002762)  can0  282   [6]  1F 00 D8 FF 03 01
 (1742566874.007107)  can0  182   [7]  94 FE F8 DC FE FF 00
 (1742566874.007283)  can0  181   [7]  6C FF F0 C3 FE FF 00
 (1742566874.007554)  can0  281   [6]  14 00 FE FF 03 01
 (1742566874.007767)  can0  282   [6]  1F 00 D8 FF 04 01
 (1742566874.012101)  can0  182   [7]  95 FE F8 DC FE FF 00
 (1742566874.012334)  can0  181   [7]  6C FF F0 C3 FE FF 00
 (1742566874.012534)  can0  281   [6]  14 00 EA FF 03 01
 (1742566874.012748)  can0  282   [6]  1F 00 C4 FF 03 01
 (1742566874.017072)  can0  182   [7]  96 FE F7 DC FE FF 00
 (1742566874.017306)  can0  181   [7]  6C FF F0 C3 FE FF 00
 (1742566874.017520)  can0  281   [6]  14 00 EA FF 03 01
 (1742566874.017656)  can0  282   [6]  1F 00 D8 FF 03 01
 (1742566874.022075)  can0  182   [7]  96 FE F7 DC FE FF 00
 (1742566874.022325)  can0  181   [7]  6C FF F0 C3 FE FF 00
 (1742566874.022559)  can0  282   [6]  1F 00 D8 FF 03 01
 (1742566874.022682)  can0  281   [6]  14 00 EA FF 03 01
 (1742566874.027093)  can0  182   [7]  96 FE F7 DC FE FF 00
 (1742566874.027258)  can0  181   [7]  6C FF F0 C3 FE FF 00
 (1742566874.027542)  can0  281   [6]  14 00 EA FF 03 01
 (1742566874.027661)  can0  282   [6]  1F 00 D8 FF 03 01
 (1742566874.032106)  can0  182   [7]  96 FE F7 DC FE FF 00
 (1742566874.032283)  can0  181   [7]  6C FF F0 C3 FE FF 00
 (1742566874.032518)  can0  281   [6]  14 00 EA FF 03 01
 (1742566874.032748)  can0  282   [6]  1F 00 D8 FF 04 01
 (1742566874.037103)  can0  182   [7]  96 FE F7 DC FE FF 00
 (1742566874.037365)  can0  181   [7]  6C FF F0 C3 FE FF 00
 (1742566874.037456)  can0  281   [6]  14 00 EA FF 03 01
 (1742566874.037750)  can0  282   [6]  1F 00 D8 FF 04 01
 (1742566874.042075)  can0  182   [7]  92 FE F6 DC FE FF 00
 (1742566874.042215)  can0  181   [7]  6C FF F0 C3 FE FF 00
 (1742566874.042487)  can0  281   [6]  14 00 EA FF 03 01
 (1742566874.042688)  can0  282   [6]  1F 00 D8 FF 03 01
 (1742566874.047076)  can0  182   [7]  92 FE F6 DC FE FF 00
 (1742566874.047242)  can0  181   [7]  6C FF F0 C3 FE FF 00
 (1742566874.047503)  can0  281   [6]  14 00 EA FF 03 01
 (1742566874.047713)  can0  282   [6]  1F 00 D8 FF 03 01
 (1742566874.052076)  can0  182   [7]  92 FE F6 DC FE FF 00
 (1742566874.052239)  can0  181   [7]  6C FF F0 C3 FE FF 00
 (1742566874.052492)  can0  281   [6]  14 00 EA FF 03 01
 (1742566874.052728)  can0  282   [6]  1F 00 D8 FF 03 01
 (1742566874.053797)  can0  601   [8]  2B 43 40 00 45 FF 00 00
 (1742566874.054067)  can0  581   [8]  60 43 40 00 00 00 00 00
 (1742566874.057098)  can0  182   [7]  92 FE F6 DC FE FF 00
 (1742566874.057333)  can0  181   [7]  6C FF F0 C3 FE FF 00
 (1742566874.057462)  can0  281   [6]  14 00 EA FF 03 01
 (1742566874.057746)  can0  282   [6]  1F 00 D8 FF 03 01
 (1742566874.062055)  can0  182   [7]  92 FE F6 DC FE FF 00
 (1742566874.062233)  can0  181   [7]  6C FF F0 C3 FE FF 00
 (1742566874.062490)  can0  281   [6]  14 00 EA FF 03 01
 (1742566874.062699)  can0  282   [6]  1F 00 D8 FF 03 01
 (1742566874.063767)  can0  602   [8]  2B 43 40 00 81 FE 00 00
 (1742566874.064110)  can0  582   [8]  60 43 40 00 00 00 00 00
 (1742566874.067076)  can0  182   [7]  92 FE F5 DC FE FF 00
 (1742566874.067316)  can0  181   [7]  6C FF F0 C3 FE FF 00
 (1742566874.067431)  can0  281   [6]  14 00 D6 FF 03 01
 (1742566874.067686)  can0  282   [6]  1D 00 D8 FF 03 01
 (1742566874.072072)  can0  182   [7]  92 FE F5 DC FE FF 00
 (1742566874.072325)  can0  181   [7]  6A FF EF C3 FE FF 00
 (1742566874.072539)  can0  281   [6]  16 00 EA FF 03 01
 (1742566874.072769)  can0  282   [6]  1D 00 D8 FF 03 01
 (1742566874.077101)  can0  182   [7]  92 FE F5 DC FE FF 00
 (1742566874.077359)  can0  181   [7]  6A FF EF C3 FE FF 00
 (1742566874.077481)  can0  281   [6]  16 00 EA FF 03 01
 (1742566874.077713)  can0  282   [6]  1D 00 D8 FF 03 01
 (1742566874.082102)  can0  182   [7]  92 FE F5 DC FE FF 00
 (1742566874.082311)  can0  181   [7]  6A FF EF C3 FE FF 00
 (1742566874.082544)  can0  281   [6]  16 00 EA FF 03 01
 (1742566874.082744)  can0  282   [6]  1D 00 D8 FF 03 01
 (1742566874.087099)  can0  182   [7]  92 FE F5 DC FE FF 00
 (1742566874.087324)  can0  181   [7]  6A FF EF C3 FE FF 00
 (1742566874.087542)  can0  281   [6]  16 00 EA FF 03 01
 (1742566874.087748)  can0  282   [6]  1D 00 D8 FF 03 01
 (1742566874.092087)  can0  182   [7]  92 FE F5 DC FE FF 00
 (1742566874.092239)  can0  181   [7]  6A FF EF C3 FE FF 00
 (1742566874.092485)  can0  281   [6]  16 00 EA FF 04 01
 (1742566874.092688)  can0  282   [6]  1D 00 C4 FF 03 01
 (1742566874.097078)  can0  182   [7]  91 FE F4 DC FE FF 00
 (1742566874.097258)  can0  181   [7]  6A FF EF C3 FE FF 00
 (1742566874.097494)  can0  281   [6]  16 00 EA FF 03 01
 (1742566874.097715)  can0  282   [6]  1F 00 D8 FF 03 01
 (1742566874.102097)  can0  182   [7]  91 FE F4 DC FE FF 00
 (1742566874.102333)  can0  181   [7]  6A FF EF C3 FE FF 00
 (1742566874.102538)  can0  281   [6]  16 00 EA FF 03 01
 (1742566874.102753)  can0  282   [6]  1F 00 D8 FF 03 01
 (1742566874.107098)  can0  182   [7]  91 FE F4 DC FE FF 00
 (1742566874.107321)  can0  181   [7]  6A FF EF C3 FE FF 00
 (1742566874.107531)  can0  282   [6]  1F 00 D8 FF 03 01
 (1742566874.107747)  can0  281   [6]  16 00 EA FF 03 01
 (1742566874.112055)  can0  182   [7]  91 FE F4 DC FE FF 00
 (1742566874.112263)  can0  181   [7]  6A FF EF C3 FE FF 00
 (1742566874.112471)  can0  281   [6]  16 00 EA FF 03 01
 (1742566874.112697)  can0  282   [6]  1F 00 D8 FF 03 01
 (1742566874.117047)  can0  182   [7]  91 FE F4 DC FE FF 00
 (1742566874.117280)  can0  181   [7]  6A FF EF C3 FE FF 00
 (1742566874.117486)  can0  281   [6]  16 00 EA FF 04 01
 (1742566874.117694)  can0  282   [6]  1F 00 C4 FF 03 01
 (1742566874.118748)  can0  601   [8]  2B 43 40 00 30 FF 00 00
 (1742566874.119118)  can0  581   [8]  60 43 40 00 00 00 00 00
 (1742566874.122125)  can0  182   [7]  8F FE F3 DC FE FF 00
 (1742566874.122346)  can0  181   [7]  6A FF EF C3 FE FF 00
 (1742566874.122542)  can0  282   [6]  1D 00 D8 FF 03 01
 (1742566874.122760)  can0  281   [6]  16 00 D6 FF 04 01
 (1742566874.127121)  can0  182   [7]  8F FE F3 DC FE FF 00
 (1742566874.127351)  can0  181   [7]  6A FF EF C3 FE FF 00
 (1742566874.127557)  can0  282   [6]  1D 00 D8 FF 03 01
 (1742566874.127744)  can0  281   [6]  16 00 D6 FF 04 01
 (1742566874.128755)  can0  602   [8]  2B 43 40 00 76 FE 00 00
 (1742566874.129105)  can0  582   [8]  60 43 40 00 00 00 00 00
 (1742566874.132053)  can0  182   [7]  8F FE F3 DC FE FF 00
 (1742566874.132270)  can0  181   [7]  68 FF EE C3 FE FF 00
 (1742566874.132492)  can0  281   [6]  1B 00 EA FF 04 01
 (1742566874.132689)  can0  282   [6]  1D 00 D8 FF 03 01
 (1742566874.137073)  can0  182   [7]  8F FE F3 DC FE FF 00
 (1742566874.137292)  can0  181   [7]  68 FF EE C3 FE FF 00
 (1742566874.137493)  can0  281   [6]  1B 00 EA FF 03 01
 (1742566874.137719)  can0  282   [6]  1D 00 D8 FF 03 01
 (1742566874.142072)  can0  182   [7]  8F FE F3 DC FE FF 00
 (1742566874.142290)  can0  181   [7]  68 FF EE C3 FE FF 00
 (1742566874.142515)  can0  281   [6]  1B 00 EA FF 03 01
 (1742566874.142714)  can0  282   [6]  1D 00 D8 FF 04 01
 (1742566874.147097)  can0  182   [7]  8F FE F3 DC FE FF 00
 (1742566874.147329)  can0  181   [7]  68 FF EE C3 FE FF 00
 (1742566874.147523)  can0  281   [6]  1B 00 EA FF 04 01
 (1742566874.147719)  can0  282   [6]  1D 00 C4 FF 03 01
 (1742566874.152046)  can0  182   [7]  8E FE F2 DC FE FF 00
 (1742566874.152291)  can0  181   [7]  68 FF EE C3 FE FF 00
 (1742566874.152486)  can0  281   [6]  1B 00 EA FF 04 01
 (1742566874.152691)  can0  282   [6]  1F 00 D8 FF 03 01
 (1742566874.157046)  can0  182   [7]  8E FE F2 DC FE FF 00
 (1742566874.157288)  can0  181   [7]  68 FF EE C3 FE FF 00
 (1742566874.157494)  can0  281   [6]  1B 00 EA FF 04 01
 (1742566874.157690)  can0  282   [6]  1F 00 D8 FF 03 01
 (1742566874.162080)  can0  182   [7]  8E FE F2 DC FE FF 00
 (1742566874.162293)  can0  181   [7]  68 FF EE C3 FE FF 00
 (1742566874.162515)  can0  281   [6]  1B 00 EA FF 04 01
 (1742566874.162718)  can0  282   [6]  1F 00 D8 FF 03 01
 (1742566874.167081)  can0  182   [7]  8E FE F2 DC FE FF 00
 (1742566874.167298)  can0  181   [7]  68 FF EE C3 FE FF 00
 (1742566874.167486)  can0  281   [6]  1B 00 EA FF 03 01
 (1742566874.167710)  can0  282   [6]  1F 00 D8 FF 03 01
 (1742566874.172097)  can0  182   [7]  8D FE F1 DC FE FF 00
 (1742566874.172287)  can0  181   [7]  68 FF EE C3 FE FF 00
 (1742566874.172534)  can0  281   [6]  1B 00 D6 FF 03 01
 (1742566874.172743)  can0  282   [6]  1F 00 D8 FF 03 01
 (1742566874.177109)  can0  182   [7]  8D FE F1 DC FE FF 00
 (1742566874.177336)  can0  181   [7]  66 FF ED C3 FE FF 00
 (1742566874.177458)  can0  281   [6]  1D 00 EA FF 03 01
 (1742566874.177749)  can0  282   [6]  1F 00 D8 FF 03 01
 (1742566874.182054)  can0  182   [7]  8D FE F1 DC FE FF 00
 (1742566874.182270)  can0  181   [7]  66 FF ED C3 FE FF 00
 (1742566874.182461)  can0  281   [6]  1D 00 EA FF 03 01
 (1742566874.182716)  can0  282   [6]  1F 00 D8 FF 03 01
 (1742566874.183750)  can0  601   [8]  2B 43 40 00 17 FF 00 00
 (1742566874.184135)  can0  581   [8]  60 43 40 00 00 00 00 00
 (1742566874.187072)  can0  182   [7]  8D FE F1 DC FE FF 00
 (1742566874.187295)  can0  181   [7]  66 FF ED C3 FE FF 00
 (1742566874.187485)  can0  281   [6]  1D 00 EA FF 03 01
 (1742566874.187714)  can0  282   [6]  1F 00 D8 FF 03 01
 (1742566874.192104)  can0  182   [7]  8D FE F1 DC FE FF 00
 (1742566874.192316)  can0  181   [7]  66 FF ED C3 FE FF 00
 (1742566874.192531)  can0  281   [6]  1D 00 EA FF 03 01
 (1742566874.192783)  can0  282   [6]  1F 00 D8 FF 03 01
 (1742566874.193671)  can0  602   [8]  2B 43 40 00 67 FE 00 00
 (1742566874.194122)  can0  582   [8]  60 43 40 00 00 00 00 00
 (1742566874.197117)  can0  182   [7]  8D FE F0 DC FE FF 00
 (1742566874.197315)  can0  181   [7]  66 FF ED C3 FE FF 00
 (1742566874.197532)  can0  281   [6]  1D 00 EA FF 03 01
 (1742566874.197756)  can0  282   [6]  1F 00 C4 FF 03 01
 (1742566874.202075)  can0  182   [7]  89 FE F0 DC FE FF 00
 (1742566874.202288)  can0  181   [7]  66 FF ED C3 FE FF 00
 (1742566874.202479)  can0  281   [6]  1D 00 EA FF 03 01
 (1742566874.202700)  can0  282   [6]  1F 00 D8 FF 03 01
 (1742566874.207070)  can0  182   [7]  89 FE F0 DC FE FF 00
 (1742566874.207299)  can0  181   [7]  66 FF ED C3 FE FF 00
 (1742566874.207488)  can0  281   [6]  1D 00 EA FF 03 01
 (1742566874.207742)  can0  282   [6]  1F 00 D8 FF 03 01
 (1742566874.212098)  can0  182   [7]  89 FE F0 DC FE FF 00
 (1742566874.212325)  can0  181   [7]  66 FF ED C3 FE FF 00
 (1742566874.212524)  can0  281   [6]  1D 00 EA FF 03 01
 (1742566874.212739)  can0  282   [6]  1F 00 D8 FF 03 01
 (1742566874.217099)  can0  182   [7]  89 FE F0 DC FE FF 00
 (1742566874.217324)  can0  181   [7]  66 FF ED C3 FE FF 00
 (1742566874.217522)  can0  281   [6]  1D 00 D6 FF 03 01
 (1742566874.217716)  can0  282   [6]  1F 00 D8 FF 03 01
 (1742566874.222072)  can0  182   [7]  89 FE EF DC FE FF 00
 (1742566874.222307)  can0  181   [7]  66 FF ED C3 FE FF 00
 (1742566874.222509)  can0  281   [6]  1D 00 D6 FF 03 01
 (1742566874.222687)  can0  282   [6]  1F 00 C4 FF 03 01
 (1742566874.227040)  can0  182   [7]  88 FE EF DC FE FF 00
 (1742566874.227299)  can0  181   [7]  60 FF EC C3 FE FF 00
 (1742566874.227494)  can0  281   [6]  23 00 EA FF 03 01
 (1742566874.227717)  can0  282   [6]  21 00 D8 FF 03 01
 (1742566874.232100)  can0  182   [7]  88 FE EF DC FE FF 00
 (1742566874.232346)  can0  181   [7]  60 FF EC C3 FE FF 00
 (1742566874.232520)  can0  281   [6]  23 00 EA FF 03 01
 (1742566874.232743)  can0  282   [6]  21 00 D8 FF 03 01
 (1742566874.237098)  can0  182   [7]  88 FE EF DC FE FF 00
 (1742566874.237319)  can0  181   [7]  60 FF EC C3 FE FF 00
 (1742566874.237544)  can0  281   [6]  23 00 EA FF 03 01
 (1742566874.237732)  can0  282   [6]  21 00 D8 FF 03 01
 (1742566874.242047)  can0  182   [7]  88 FE EF DC FE FF 00
 (1742566874.242272)  can0  181   [7]  60 FF EC C3 FE FF 00
 (1742566874.242491)  can0  281   [6]  23 00 EA FF 03 01
 (1742566874.242688)  can0  282   [6]  21 00 D8 FF 04 01
 (1742566874.247079)  can0  182   [7]  88 FE EF DC FE FF 00
 (1742566874.247289)  can0  181   [7]  60 FF EC C3 FE FF 00
 (1742566874.247498)  can0  282   [6]  21 00 C4 FF 03 01
 (1742566874.247694)  can0  281   [6]  23 00 EA FF 03 01
 (1742566874.248750)  can0  601   [8]  2B 43 40 00 F8 FE 00 00
 (1742566874.249128)  can0  581   [8]  60 43 40 00 00 00 00 00
 (1742566874.252044)  can0  182   [7]  86 FE EE DC FE FF 00
 (1742566874.252296)  can0  181   [7]  60 FF EC C3 FE FF 00
 (1742566874.252490)  can0  281   [6]  23 00 EA FF 03 01
 (1742566874.252689)  can0  282   [6]  23 00 D8 FF 03 01
 (1742566874.257047)  can0  182   [7]  86 FE EE DC FE FF 00
 (1742566874.257269)  can0  181   [7]  60 FF EC C3 FE FF 00
 (1742566874.257491)  can0  281   [6]  23 00 D6 FF 03 01
 (1742566874.257694)  can0  282   [6]  23 00 D8 FF 03 01
 (1742566874.258748)  can0  602   [8]  2B 43 40 00 55 FE 00 00
 (1742566874.259098)  can0  582   [8]  60 43 40 00 00 00 00 00
 (1742566874.262075)  can0  182   [7]  86 FE EE DC FE FF 00
 (1742566874.262300)  can0  181   [7]  60 FF EC C3 FE FF 00
 (1742566874.262490)  can0  281   [6]  23 00 D6 FF 03 01
 (1742566874.262694)  can0  282   [6]  23 00 D8 FF 03 01
 (1742566874.267072)  can0  182   [7]  86 FE EE DC FE FF 00
 (1742566874.267301)  can0  181   [7]  60 FF EC C3 FE FF 00
 (1742566874.267532)  can0  282   [6]  23 00 C4 FF 03 01
 (1742566874.267720)  can0  281   [6]  23 00 D6 FF 03 01
 (1742566874.272050)  can0  182   [7]  81 FE ED DC FE FF 00
 (1742566874.272286)  can0  181   [7]  5B FF EB C3 FE FF 00
 (1742566874.272484)  can0  281   [6]  25 00 EA FF 03 01
 (1742566874.272670)  can0  282   [6]  25 00 D8 FF 03 01
 (1742566874.277050)  can0  182   [7]  81 FE ED DC FE FF 00
 (1742566874.277231)  can0  181   [7]  5B FF EB C3 FE FF 00
 (1742566874.277487)  can0  282   [6]  25 00 D8 FF 03 01
 (1742566874.277685)  can0  281   [6]  25 00 EA FF 03 01
 (1742566874.282074)  can0  182   [7]  81 FE ED DC FE FF 00
 (1742566874.282298)  can0  181   [7]  5B FF EB C3 FE FF 00
 (1742566874.282488)  can0  281   [6]  25 00 EA FF 03 01
 (1742566874.282692)  can0  282   [6]  25 00 D8 FF 03 01
 (1742566874.287073)  can0  182   [7]  81 FE ED DC FE FF 00
 (1742566874.287270)  can0  181   [7]  5B FF EB C3 FE FF 00
 (1742566874.287488)  can0  281   [6]  25 00 EA FF 03 01
 (1742566874.287689)  can0  282   [6]  25 00 D8 FF 03 01
 (1742566874.292076)  can0  182   [7]  81 FE ED DC FE FF 00
 (1742566874.292293)  can0  181   [7]  5B FF EB C3 FE FF 00
 (1742566874.292511)  can0  281   [6]  25 00 EA FF 03 01
 (1742566874.292716)  can0  282   [6]  25 00 C4 FF 04 01
 (1742566874.297096)  can0  182   [7]  81 FE ED DC FE FF 00
 (1742566874.297322)  can0  181   [7]  5B FF EB C3 FE FF 00
 (1742566874.297516)  can0  281   [6]  25 00 D6 FF 03 01
 (1742566874.297730)  can0  282   [6]  25 00 C4 FF 03 01
 (1742566874.302070)  can0  182   [7]  7F FE EC DC FE FF 00
 (1742566874.302296)  can0  181   [7]  5B FF EB C3 FE FF 00
 (1742566874.302479)  can0  281   [6]  25 00 D6 FF 03 01
 (1742566874.302684)  can0  282   [6]  27 00 D8 FF 03 01
 (1742566874.307046)  can0  182   [7]  7F FE EC DC FE FF 00
 (1742566874.307261)  can0  181   [7]  5B FF EB C3 FE FF 00
 (1742566874.307498)  can0  281   [6]  25 00 D6 FF 03 01
 (1742566874.307681)  can0  282   [6]  27 00 D8 FF 03 01
 (1742566874.312071)  can0  182   [7]  7F FE EC DC FE FF 00
 (1742566874.312285)  can0  181   [7]  57 FF EA C3 FE FF 00
 (1742566874.312515)  can0  281   [6]  27 00 EA FF 03 01
 (1742566874.312713)  can0  282   [6]  27 00 D8 FF 03 01
 (1742566874.313750)  can0  601   [8]  2B 43 40 00 D5 FE 00 00
 (1742566874.314068)  can0  581   [8]  60 43 40 00 00 00 00 00
 (1742566874.317073)  can0  182   [7]  7F FE EB DC FE FF 00
 (1742566874.317279)  can0  181   [7]  57 FF EA C3 FE FF 00
 (1742566874.317488)  can0  281   [6]  27 00 EA FF 03 01
 (1742566874.317693)  can0  282   [6]  27 00 C4 FF 03 01
 (1742566874.322074)  can0  182   [7]  76 FE EB DC FE FF 00
 (1742566874.322303)  can0  181   [7]  57 FF EA C3 FE FF 00
 (1742566874.322520)  can0  281   [6]  27 00 EA FF 03 01
 (1742566874.322715)  can0  282   [6]  27 00 D8 FF 03 01
 (1742566874.323726)  can0  602   [8]  2B 43 40 00 41 FE 00 00
 (1742566874.324100)  can0  582   [8]  60 43 40 00 00 00 00 00
 (1742566874.327078)  can0  182   [7]  76 FE EB DC FE FF 00
 (1742566874.327299)  can0  181   [7]  57 FF EA C3 FE FF 00
 (1742566874.327485)  can0  281   [6]  27 00 EA FF 03 01
 (1742566874.327693)  can0  282   [6]  27 00 D8 FF 03 01
 (1742566874.332096)  can0  182   [7]  76 FE EB DC FE FF 00
 (1742566874.332319)  can0  181   [7]  57 FF EA C3 FE FF 00
 (1742566874.332530)  can0  281   [6]  27 00 D6 FF 03 01
 (1742566874.332728)  can0  282   [6]  27 00 D8 FF 03 01
 (1742566874.337084)  can0  182   [7]  76 FE EB DC FE FF 00
 (1742566874.337298)  can0  181   [7]  57 FF EA C3 FE FF 00
 (1742566874.337489)  can0  281   [6]  27 00 D6 FF 03 01
 (1742566874.337725)  can0  282   [6]  27 00 C4 FF 03 01
 (1742566874.342095)  can0  182   [7]  76 FE EB DC FE FF 00
 (1742566874.342335)  can0  181   [7]  57 FF EA C3 FE FF 00
 (1742566874.342543)  can0  282   [6]  27 00 C3 FF 03 01
 (1742566874.342753)  can0  281   [6]  27 00 D6 FF 03 01
 (1742566874.347071)  can0  182   [7]  74 FE EA DC FE FF 00
 (1742566874.347213)  can0  181   [7]  57 FF E9 C3 FE FF 00
 (1742566874.347487)  can0  281   [6]  27 00 D6 FF 03 01
 (1742566874.347709)  can0  282   [6]  29 00 D7 FF 03 01
 (1742566874.352021)  can0  182   [7]  74 FE EA DC FE FF 00
 (1742566874.352304)  can0  181   [7]  4D FF E9 C3 FE FF 00
 (1742566874.352496)  can0  281   [6]  27 00 EA FF 03 01
 (1742566874.352715)  can0  282   [6]  29 00 D7 FF 03 01
 (1742566874.357070)  can0  182   [7]  74 FE EA DC FE FF 00
 (1742566874.357283)  can0  181   [7]  4D FF E9 C3 FE FF 00
 (1742566874.357482)  can0  281   [6]  27 00 EA FF 04 01
 (1742566874.357705)  can0  282   [6]  29 00 D7 FF 03 01
 (1742566874.362072)  can0  182   [7]  74 FE EA DC FE FF 00
 (1742566874.362287)  can0  181   [7]  4D FF E9 C3 FE FF 00
 (1742566874.362486)  can0  281   [6]  27 00 EA FF 03 01
 (1742566874.362723)  can0  282   [6]  29 00 C3 FF 03 01
 (1742566874.367097)  can0  182   [7]  6D FE E9 DC FE FF 00
 (1742566874.367312)  can0  181   [7]  4D FF E9 C3 FE FF 00
 (1742566874.367515)  can0  281   [6]  27 00 D5 FF 04 01
 (1742566874.367758)  can0  282   [6]  2B 00 D7 FF 03 01
 (1742566874.372068)  can0  182   [7]  6D FE E9 DC FE FF 00
 (1742566874.372271)  can0  181   [7]  4D FF E9 C3 FE FF 00
 (1742566874.372510)  can0  281   [6]  27 00 D5 FF 04 01
 (1742566874.372691)  can0  282   [6]  2B 00 D7 FF 03 01
 (1742566874.377045)  can0  182   [7]  6D FE E9 DC FE FF 00
 (1742566874.377231)  can0  181   [7]  4D FF E9 C3 FE FF 00
 (1742566874.377476)  can0  281   [6]  27 00 D5 FF 04 01
 (1742566874.377695)  can0  282   [6]  2B 00 D7 FF 03 01
 (1742566874.378779)  can0  601   [8]  2B 43 40 00 B0 FE 00 00
 (1742566874.379124)  can0  581   [8]  60 43 40 00 00 00 00 00
 (1742566874.382100)  can0  182   [7]  6D FE E9 DC FE FF 00
 (1742566874.382313)  can0  181   [7]  4D FF E8 C3 FE FF 00
 (1742566874.382528)  can0  281   [6]  27 00 D5 FF 04 01
 (1742566874.382714)  can0  282   [6]  2B 00 C3 FF 03 01
 (1742566874.387104)  can0  182   [7]  6D FE E9 DC FE FF 00
 (1742566874.387313)  can0  181   [7]  44 FF E8 C3 FE FF 00
 (1742566874.387514)  can0  281   [6]  27 00 E9 FF 04 01
 (1742566874.387716)  can0  282   [6]  2B 00 C3 FF 03 01
 (1742566874.388751)  can0  602   [8]  2B 43 40 00 29 FE 00 00
 (1742566874.389069)  can0  582   [8]  60 43 40 00 00 00 00 00
 (1742566874.392073)  can0  182   [7]  6B FE E8 DC FE FF 00
 (1742566874.392292)  can0  181   [7]  44 FF E8 C3 FE FF 00
 (1742566874.392501)  can0  281   [6]  27 00 E9 FF 03 01
 (1742566874.392700)  can0  282   [6]  2D 00 D7 FF 03 01
 (1742566874.397072)  can0  182   [7]  6B FE E8 DC FE FF 00
 (1742566874.397286)  can0  181   [7]  44 FF E8 C3 FE FF 00
 (1742566874.397483)  can0  281   [6]  27 00 D5 FF 03 01
 (1742566874.397735)  can0  282   [6]  2D 00 D7 FF 03 01
 (1742566874.402080)  can0  182   [7]  6B FE E8 DC FE FF 00
 (1742566874.402313)  can0  181   [7]  44 FF E8 C3 FE FF 00
 (1742566874.402518)  can0  281   [6]  27 00 D5 FF 04 01
 (1742566874.402715)  can0  282   [6]  2D 00 D7 FF 03 01
 (1742566874.407095)  can0  182   [7]  6B FE E8 DC FE FF 00
 (1742566874.407316)  can0  181   [7]  44 FF E8 C3 FE FF 00
 (1742566874.407509)  can0  281   [6]  27 00 D5 FF 03 01
 (1742566874.407720)  can0  282   [6]  2D 00 C3 FF 03 01
 (1742566874.412073)  can0  182   [7]  63 FE E7 DC FE FF 00
 (1742566874.412260)  can0  181   [7]  44 FF E8 C3 FE FF 00
 (1742566874.412489)  can0  281   [6]  27 00 D5 FF 04 01
 (1742566874.412686)  can0  282   [6]  2D 00 D7 FF 03 01
 (1742566874.417071)  can0  182   [7]  63 FE E7 DC FE FF 00
 (1742566874.417295)  can0  181   [7]  3C FF E7 C3 FE FF 00
 (1742566874.417430)  can0  281   [6]  27 00 E9 FF 04 01
 (1742566874.417701)  can0  282   [6]  2D 00 D7 FF 03 01
 (1742566874.422074)  can0  182   [7]  63 FE E7 DC FE FF 00
 (1742566874.422316)  can0  181   [7]  3C FF E7 C3 FE FF 00
 (1742566874.422528)  can0  282   [6]  2D 00 D7 FF 03 01
 (1742566874.422730)  can0  281   [6]  27 00 E9 FF 03 01
 (1742566874.427070)  can0  182   [7]  63 FE E7 DC FE FF 00
 (1742566874.427326)  can0  181   [7]  3C FF E7 C3 FE FF 00
 (1742566874.427552)  can0  281   [6]  27 00 D5 FF 03 01
 (1742566874.427661)  can0  282   [6]  2D 00 C3 FF 03 01
 (1742566874.432097)  can0  182   [7]  63 FE E7 DC FE FF 00
 (1742566874.432329)  can0  181   [7]  3C FF E7 C3 FE FF 00
 (1742566874.432555)  can0  282   [6]  2D 00 C3 FF 03 01
 (1742566874.432756)  can0  281   [6]  27 00 D5 FF 03 01
 (1742566874.437075)  can0  182   [7]  5F FE E6 DC FE FF 00
 (1742566874.437322)  can0  181   [7]  3C FF E7 C3 FE FF 00
 (1742566874.437454)  can0  281   [6]  27 00 D5 FF 03 01
 (1742566874.437699)  can0  282   [6]  2F 00 D7 FF 03 01
 (1742566874.442095)  can0  182   [7]  5F FE E6 DC FE FF 00
 (1742566874.442281)  can0  181   [7]  3C FF E7 C3 FE FF 00
 (1742566874.442516)  can0  281   [6]  27 00 D5 FF 03 01
 (1742566874.442756)  can0  282   [6]  2F 00 D7 FF 03 01
 (1742566874.443746)  can0  601   [8]  2B 43 40 00 83 FE 00 00
 (1742566874.444124)  can0  581   [8]  60 43 40 00 00 00 00 00
 (1742566874.447046)  can0  182   [7]  5F FE E6 DC FE FF 00
 (1742566874.447213)  can0  181   [7]  2B FF E6 C3 FE FF 00
 (1742566874.447464)  can0  281   [6]  29 00 E9 FF 03 01
 (1742566874.447710)  can0  282   [6]  2F 00 C3 FF 03 01
 (1742566874.452093)  can0  182   [7]  56 FE E5 DC FE FF 00
 (1742566874.452239)  can0  181   [7]  2B FF E6 C3 FE FF 00
 (1742566874.452515)  can0  281   [6]  29 00 E9 FF 03 01
 (1742566874.452723)  can0  282   [6]  31 00 D7 FF 03 01
 (1742566874.453747)  can0  602   [8]  2B 43 40 00 10 FE 00 00
 (1742566874.454125)  can0  582   [8]  60 43 40 00 00 00 00 00
 (1742566874.457070)  can0  182   [7]  56 FE E5 DC FE FF 00
 (1742566874.457327)  can0  181   [7]  2B FF E6 C3 FE FF 00
 (1742566874.457541)  can0  281   [6]  29 00 D5 FF 03 01
 (1742566874.457730)  can0  282   [6]  31 00 D7 FF 03 01
 (1742566874.462049)  can0  182   [7]  56 FE E5 DC FE FF 00
 (1742566874.462295)  can0  181   [7]  2B FF E6 C3 FE FF 00
 (1742566874.462409)  can0  281   [6]  29 00 D5 FF 03 01
 (1742566874.462669)  can0  282   [6]  31 00 D7 FF 03 01
 (1742566874.467050)  can0  182   [7]  56 FE E5 DC FE FF 00
 (1742566874.467274)  can0  181   [7]  2B FF E6 C3 FE FF 00
 (1742566874.467456)  can0  281   [6]  29 00 D5 FF 03 01
 (1742566874.467671)  can0  282   [6]  31 00 C3 FF 03 01
 (1742566874.472055)  can0  182   [7]  56 FE E5 DC FE FF 00
 (1742566874.472277)  can0  181   [7]  2B FF E6 C3 FE FF 00
 (1742566874.472433)  can0  281   [6]  29 00 D5 FF 03 01
 (1742566874.472697)  can0  282   [6]  31 00 C3 FF 03 01
 (1742566874.477083)  can0  182   [7]  56 FE E4 DC FE FF 00
 (1742566874.477256)  can0  181   [7]  1C FF E5 C3 FE FF 00
 (1742566874.477508)  can0  281   [6]  29 00 E9 FF 03 01
 (1742566874.477721)  can0  282   [6]  31 00 C3 FF 03 01
 (1742566874.482095)  can0  182   [7]  54 FE E4 DC FE FF 00
 (1742566874.482351)  can0  181   [7]  1C FF E5 C3 FE FF 00
 (1742566874.482480)  can0  281   [6]  29 00 D5 FF 03 01
 (1742566874.482745)  can0  282   [6]  34 00 D7 FF 03 01
 (1742566874.487122)  can0  182   [7]  54 FE E4 DC FE FF 00
 (1742566874.487355)  can0  181   [7]  1C FF E5 C3 FE FF 00
 (1742566874.487479)  can0  281   [6]  29 00 D5 FF 03 01
 (1742566874.487721)  can0  282   [6]  34 00 CC FF 03 01
 (1742566874.492045)  can0  182   [7]  54 FE E4 DC FE FF 00
 (1742566874.492264)  can0  181   [7]  1C FF E5 C3 FE FF 00
 (1742566874.492481)  can0  281   [6]  29 00 D5 FF 03 01
 (1742566874.492690)  can0  282   [6]  34 00 C3 FF 03 01
 (1742566874.497077)  can0  182   [7]  49 FE E3 DC FE FF 00
 (1742566874.497320)  can0  181   [7]  1C FF E5 C3 FE FF 00
 (1742566874.497517)  can0  281   [6]  29 00 D5 FF 03 01
 (1742566874.497726)  can0  282   [6]  36 00 D7 FF 03 01
 (1742566874.502024)  can0  182   [7]  49 FE E3 DC FE FF 00
 (1742566874.502283)  can0  181   [7]  1C FF E5 C3 FE FF 00
 (1742566874.502485)  can0  281   [6]  29 00 D5 FF 03 01
 (1742566874.502677)  can0  282   [6]  36 00 D7 FF 03 01
 (1742566874.507122)  can0  182   [7]  49 FE E3 DC FE FF 00
 (1742566874.507255)  can0  181   [7]  11 FF E4 C3 FE FF 00
 (1742566874.507538)  can0  281   [6]  2B 00 E9 FF 03 01
 (1742566874.507662)  can0  282   [6]  36 00 D0 FF 03 01
 (1742566874.508778)  can0  601   [8]  2B 43 40 00 47 FE 00 00
 (1742566874.509109)  can0  581   [8]  60 43 40 00 00 00 00 00
 (1742566874.512097)  can0  182   [7]  49 FE E3 DC FE FF 00
 (1742566874.512254)  can0  181   [7]  11 FF E4 C3 FE FF 00
 (1742566874.512509)  can0  281   [6]  2B 00 D4 FF 03 01
 (1742566874.512729)  can0  282   [6]  36 00 C3 FF 03 01
 (1742566874.517143)  can0  182   [7]  49 FE E3 DC FE FF 00
 (1742566874.517280)  can0  181   [7]  11 FF E4 C3 FE FF 00
 (1742566874.517527)  can0  281   [6]  2B 00 D4 FF 03 01
 (1742566874.517776)  can0  282   [6]  36 00 C3 FF 03 01
 (1742566874.518744)  can0  602   [8]  2B 43 40 00 EC FD 00 00
 (1742566874.519097)  can0  582   [8]  60 43 40 00 00 00 00 00
 (1742566874.522044)  can0  182   [7]  42 FE E2 DC FE FF 00
 (1742566874.522283)  can0  181   [7]  11 FF E4 C3 FE FF 00
 (1742566874.522489)  can0  281   [6]  2B 00 D4 FF 03 01
 (1742566874.522713)  can0  282   [6]  34 00 D7 FF 03 01
 (1742566874.527048)  can0  182   [7]  42 FE E2 DC FE FF 00
 (1742566874.527286)  can0  181   [7]  11 FF E4 C3 FE FF 00
 (1742566874.527496)  can0  281   [6]  2B 00 D4 FF 03 01
 (1742566874.527752)  can0  282   [6]  34 00 CA FF 03 01
 (1742566874.532126)  can0  182   [7]  42 FE E2 DC FE FF 00
 (1742566874.532260)  can0  181   [7]  FB FE E3 C3 FE FF 00
 (1742566874.532518)  can0  282   [6]  34 00 C3 FF 03 01
 (1742566874.532716)  can0  281   [6]  29 00 D4 FF 03 01
 (1742566874.537072)  can0  182   [7]  3C FE E1 DC FE FF 00
 (1742566874.537229)  can0  181   [7]  FB FE E3 C3 FE FF 00
 (1742566874.537493)  can0  281   [6]  29 00 D4 FF 03 01
 (1742566874.537692)  can0  282   [6]  36 00 D7 FF 03 01
 (1742566874.542058)  can0  182   [7]  3C FE E1 DC FE FF 00
 (1742566874.542295)  can0  181   [7]  FB FE E3 C3 FE FF 00
 (1742566874.542509)  can0  282   [6]  36 00 D7 FF 03 01
 (1742566874.542705)  can0  281   [6]  29 00 D4 FF 03 01
 (1742566874.547073)  can0  182   [7]  3C FE E1 DC FE FF 00
 (1742566874.547290)  can0  181   [7]  FB FE E3 C3 FE FF 00
 (1742566874.547485)  can0  282   [6]  36 00 C8 FF 03 01
 (1742566874.547678)  can0  281   [6]  29 00 D4 FF 04 01
 (1742566874.552094)  can0  182   [7]  3C FE E1 DC FE FF 00
 (1742566874.552340)  can0  181   [7]  FB FE E3 C3 FE FF 00
 (1742566874.552526)  can0  281   [6]  29 00 D4 FF 04 01
 (1742566874.552706)  can0  282   [6]  36 00 C3 FF 03 01
 (1742566874.557049)  can0  182   [7]  3C FE E1 DC FE FF 00
 (1742566874.557260)  can0  181   [7]  E8 FE E2 C3 FE FF 00
 (1742566874.557459)  can0  281   [6]  27 00 D4 FF 03 01
 (1742566874.557656)  can0  282   [6]  36 00 C3 FF 03 01
 (1742566874.562095)  can0  182   [7]  34 FE E0 DC FE FF 00
 (1742566874.562264)  can0  181   [7]  E8 FE E2 C3 FE FF 00
 (1742566874.562524)  can0  281   [6]  27 00 D4 FF 03 01
 (1742566874.562719)  can0  282   [6]  31 00 D7 FF 03 01
 (1742566874.567098)  can0  182   [7]  34 FE E0 DC FE FF 00
 (1742566874.567294)  can0  181   [7]  E8 FE E2 C3 FE FF 00
 (1742566874.567521)  can0  281   [6]  27 00 D4 FF 03 01
 (1742566874.567722)  can0  282   [6]  31 00 C2 FF 03 01
 (1742566874.572077)  can0  182   [7]  34 FE E0 DC FE FF 00
 (1742566874.572282)  can0  181   [7]  E8 FE E2 C3 FE FF 00
 (1742566874.572466)  can0  281   [6]  27 00 D4 FF 03 01
 (1742566874.572681)  can0  282   [6]  31 00 C2 FF 03 01
 (1742566874.573684)  can0  601   [8]  2B 43 40 00 FC FD 00 00
 (1742566874.574152)  can0  581   [8]  60 43 40 00 00 00 00 00
 (1742566874.577068)  can0  182   [7]  32 FE DF DC FE FF 00
 (1742566874.577301)  can0  181   [7]  E8 FE E2 C3 FE FF 00
 (1742566874.577504)  can0  281   [6]  27 00 C0 FF 03 01
 (1742566874.577735)  can0  282   [6]  34 00 D6 FF 03 01
 (1742566874.581991)  can0  182   [7]  32 FE DF DC FE FF 00
 (1742566874.582205)  can0  181   [7]  D8 FE E1 C3 FE FF 00
 (1742566874.582403)  can0  281   [6]  27 00 D4 FF 03 01
 (1742566874.582628)  can0  282   [6]  34 00 D6 FF 03 01
 (1742566874.583658)  can0  602   [8]  2B 43 40 00 BE FD 00 00
 (1742566874.584008)  can0  582   [8]  60 43 40 00 00 00 00 00
 (1742566874.586983)  can0  182   [7]  32 FE DF DC FE FF 00
 (1742566874.587178)  can0  181   [7]  D8 FE E1 C3 FE FF 00
 (1742566874.587402)  can0  281   [6]  27 00 D4 FF 03 01
 (1742566874.587602)  can0  282   [6]  34 00 C2 FF 03 01
 (1742566874.592007)  can0  182   [7]  32 FE DF DC FE FF 00
 (1742566874.592293)  can0  181   [7]  D8 FE E1 C3 FE FF 00
 (1742566874.592426)  can0  281   [6]  27 00 D4 FF 03 01
 (1742566874.592626)  can0  282   [6]  34 00 C2 FF 03 01
 (1742566874.597007)  can0  182   [7]  32 FE DF DC FE FF 00
 (1742566874.597301)  can0  181   [7]  D8 FE E1 C3 FE FF 00
 (1742566874.597504)  can0  281   [6]  27 00 D4 FF 03 01
 (1742566874.597769)  can0  282   [6]  34 00 C2 FF 03 01
 (1742566874.602076)  can0  182   [7]  2A FE DE DC FE FF 00
 (1742566874.602297)  can0  181   [7]  C0 FE E0 C3 FE FF 00
 (1742566874.602488)  can0  281   [6]  25 00 D4 FF 03 01
 (1742566874.602654)  can0  282   [6]  31 00 CA FF 03 01
 (1742566874.607072)  can0  182   [7]  2A FE DE DC FE FF 00
 (1742566874.607279)  can0  181   [7]  C0 FE E0 C3 FE FF 00
 (1742566874.607475)  can0  281   [6]  25 00 D3 FF 03 01
 (1742566874.607674)  can0  282   [6]  31 00 C2 FF 03 01
 (1742566874.612041)  can0  182   [7]  2A FE DE DC FE FF 00
 (1742566874.612361)  can0  181   [7]  C0 FE E0 C3 FE FF 00
 (1742566874.612554)  can0  281   [6]  25 00 D3 FF 03 01
 (1742566874.612697)  can0  282   [6]  31 00 C2 FF 03 01
 (1742566874.616990)  can0  182   [7]  22 FE DD DC FE FF 00
 (1742566874.617201)  can0  181   [7]  C0 FE E0 C3 FE FF 00
 (1742566874.617425)  can0  281   [6]  25 00 BF FF 03 01
 (1742566874.617625)  can0  282   [6]  31 00 D6 FF 03 01
 (1742566874.622004)  can0  182   [7]  22 FE DD DC FE FF 00
 (1742566874.622229)  can0  181   [7]  C0 FE E0 C3 FE FF 00
 (1742566874.622425)  can0  281   [6]  25 00 BF FF 03 01
 (1742566874.622650)  can0  282   [6]  31 00 C2 FF 03 01
 (1742566874.627008)  can0  182   [7]  22 FE DD DC FE FF 00
 (1742566874.627227)  can0  181   [7]  AC FE DF C3 FE FF 00
 (1742566874.627426)  can0  281   [6]  27 00 D3 FF 03 01
 (1742566874.627626)  can0  282   [6]  31 00 C2 FF 03 01
 (1742566874.631983)  can0  182   [7]  22 FE DD DC FE FF 00
 (1742566874.632203)  can0  181   [7]  AC FE DF C3 FE FF 00
 (1742566874.632402)  can0  282   [6]  31 00 C2 FF 03 01
 (1742566874.632603)  can0  281   [6]  27 00 D3 FF 03 01
 (1742566874.637008)  can0  182   [7]  18 FE DC DC FE FF 00
 (1742566874.637204)  can0  181   [7]  AC FE DF C3 FE FF 00
 (1742566874.637432)  can0  281   [6]  27 00 BF FF 03 01
 (1742566874.637628)  can0  282   [6]  2D 00 C2 FF 03 01
 (1742566874.638683)  can0  601   [8]  2B 43 40 00 A6 FD 00 00
 (1742566874.639057)  can0  581   [8]  60 43 40 00 00 00 00 00
 (1742566874.641983)  can0  182   [7]  18 FE DC DC FE FF 00
 (1742566874.642204)  can0  181   [7]  AC FE DF C3 FE FF 00
 (1742566874.642403)  can0  281   [6]  27 00 BF FF 03 01
 (1742566874.642603)  can0  282   [6]  2D 00 C2 FF 03 01
 (1742566874.646982)  can0  182   [7]  18 FE DC DC FE FF 00
 (1742566874.647204)  can0  181   [7]  9A FE DE C3 FE FF 00
 (1742566874.647403)  can0  281   [6]  2B 00 D3 FF 03 01
 (1742566874.647629)  can0  282   [6]  2D 00 C2 FF 03 01
 (1742566874.648658)  can0  602   [8]  2B 43 40 00 85 FD 00 00
 (1742566874.649007)  can0  582   [8]  60 43 40 00 00 00 00 00
 (1742566874.652007)  can0  182   [7]  12 FE DB DC FE FF 00
 (1742566874.652229)  can0  181   [7]  9A FE DE C3 FE FF 00
 (1742566874.652428)  can0  281   [6]  2B 00 D3 FF 03 01
 (1742566874.652653)  can0  282   [6]  2D 00 D6 FF 03 01
 (1742566874.657008)  can0  182   [7]  12 FE DB DC FE FF 00
 (1742566874.657229)  can0  181   [7]  9A FE DE C3 FE FF 00
 (1742566874.657453)  can0  281   [6]  2B 00 BF FF 03 01
 (1742566874.657653)  can0  282   [6]  2D 00 C2 FF 03 01
 (1742566874.661983)  can0  182   [7]  12 FE DB DC FE FF 00
 (1742566874.662204)  can0  181   [7]  9A FE DE C3 FE FF 00
 (1742566874.662403)  can0  281   [6]  2B 00 BF FF 03 01
 (1742566874.662603)  can0  282   [6]  2D 00 C2 FF 03 01
 (1742566874.667008)  can0  182   [7]  12 FE DB DC FE FF 00
 (1742566874.667229)  can0  181   [7]  84 FE DD C3 FE FF 00
 (1742566874.667428)  can0  281   [6]  31 00 D3 FF 03 01
 (1742566874.667628)  can0  282   [6]  2D 00 C2 FF 03 01
 (1742566874.671982)  can0  182   [7]  02 FE DA DC FE FF 00
 (1742566874.672204)  can0  181   [7]  84 FE DD C3 FE FF 00
 (1742566874.672403)  can0  281   [6]  31 00 C6 FF 03 01
 (1742566874.672628)  can0  282   [6]  29 00 C2 FF 03 01
 (1742566874.676982)  can0  182   [7]  02 FE DA DC FE FF 00
 (1742566874.677204)  can0  181   [7]  84 FE DD C3 FE FF 00
 (1742566874.677410)  can0  281   [6]  31 00 BE FF 03 01
 (1742566874.677628)  can0  282   [6]  29 00 C1 FF 03 01
 (1742566874.682008)  can0  182   [7]  02 FE DA DC FE FF 00
 (1742566874.682229)  can0  181   [7]  84 FE DC C3 FE FF 00
 (1742566874.682428)  can0  281   [6]  31 00 BE FF 03 01
 (1742566874.682628)  can0  282   [6]  29 00 C1 FF 03 01
 (1742566874.686983)  can0  182   [7]  FE FD D9 DC FE FF 00
 (1742566874.687204)  can0  181   [7]  70 FE DC C3 FE FF 00
 (1742566874.687403)  can0  281   [6]  36 00 D2 FF 03 01
 (1742566874.687603)  can0  282   [6]  27 00 C1 FF 03 01
 (1742566874.691982)  can0  182   [7]  FE FD D9 DC FE FF 00
 (1742566874.692211)  can0  181   [7]  70 FE DC C3 FE FF 00
 (1742566874.692428)  can0  281   [6]  36 00 BE FF 03 01
 (1742566874.692628)  can0  282   [6]  27 00 C1 FF 03 01
 (1742566874.697007)  can0  182   [7]  FE FD D9 DC FE FF 00
 (1742566874.697229)  can0  181   [7]  70 FE DC C3 FE FF 00
 (1742566874.697428)  can0  281   [6]  36 00 BE FF 03 01
 (1742566874.697631)  can0  282   [6]  27 00 C1 FF 03 01
 (1742566874.701983)  can0  182   [7]  FE FD D8 DC FE FF 00
 (1742566874.702204)  can0  181   [7]  5A FE DB C3 FE FF 00
 (1742566874.702403)  can0  282   [6]  27 00 AD FF 03 01
 (1742566874.702603)  can0  281   [6]  38 00 D2 FF 03 01
 (1742566874.703707)  can0  601   [8]  2B 43 40 00 44 FD 00 00
 (1742566874.704057)  can0  581   [8]  60 43 40 00 00 00 00 00
 (1742566874.707008)  can0  182   [7]  EB FD D8 DC FE FF 00
 (1742566874.707229)  can0  181   [7]  5A FE DB C3 FE FF 00
 (1742566874.707453)  can0  281   [6]  38 00 BE FF 03 01
 (1742566874.707653)  can0  282   [6]  21 00 C1 FF 03 01
 (1742566874.711958)  can0  182   [7]  EB FD D8 DC FE FF 00
 (1742566874.712179)  can0  181   [7]  5A FE DB C3 FE FF 00
 (1742566874.712403)  can0  281   [6]  38 00 BE FF 03 01
 (1742566874.712603)  can0  282   [6]  21 00 C1 FF 03 01
 (1742566874.713657)  can0  602   [8]  2B 43 40 00 3F FD 00 00
 (1742566874.713982)  can0  582   [8]  60 43 40 00 00 00 00 00
 (1742566874.716985)  can0  182   [7]  EB FD D7 DC FE FF 00
 (1742566874.717204)  can0  181   [7]  45 FE DA C3 FE FF 00
 (1742566874.717403)  can0  281   [6]  3E 00 D2 FF 03 01
 (1742566874.717604)  can0  282   [6]  21 00 AD FF 03 01
 (1742566874.722008)  can0  182   [7]  E5 FD D7 DC FE FF 00
 (1742566874.722228)  can0  181   [7]  45 FE DA C3 FE FF 00
 (1742566874.722452)  can0  281   [6]  3E 00 C2 FF 03 01
 (1742566874.722652)  can0  282   [6]  1F 00 C1 FF 03 01
 (1742566874.727032)  can0  182   [7]  E5 FD D7 DC FE FF 00
 (1742566874.727253)  can0  181   [7]  45 FE DA C3 FE FF 00
 (1742566874.727452)  can0  282   [6]  1F 00 C1 FF 03 01
 (1742566874.727652)  can0  281   [6]  3E 00 BE FF 03 01
 (1742566874.732008)  can0  182   [7]  E5 FD D7 DC FE FF 00
 (1742566874.732203)  can0  181   [7]  45 FE DA C3 FE FF 00
 (1742566874.732427)  can0  281   [6]  3E 00 BE FF 03 01
 (1742566874.732627)  can0  282   [6]  1F 00 B6 FF 03 01
 (1742566874.737007)  can0  182   [7]  D5 FD D6 DC FE FF 00
 (1742566874.737229)  can0  181   [7]  2F FE D9 C3 FE FF 00
 (1742566874.737453)  can0  281   [6]  42 00 CA FF 03 01
 (1742566874.737653)  can0  282   [6]  1B 00 C1 FF 03 01
 (1742566874.741983)  can0  182   [7]  D5 FD D6 DC FE FF 00
 (1742566874.742204)  can0  181   [7]  2F FE D9 C3 FE FF 00
 (1742566874.742403)  can0  281   [6]  42 00 BD FF 03 01
 (1742566874.742603)  can0  282   [6]  1B 00 C1 FF 03 01
 (1742566874.746982)  can0  182   [7]  D5 FD D6 DC FE FF 00
 (1742566874.747204)  can0  181   [7]  2F FE D9 C3 FE FF 00
 (1742566874.747402)  can0  281   [6]  42 00 BD FF 03 01
 (1742566874.747628)  can0  282   [6]  1B 00 AD FF 03 01
 (1742566874.752032)  can0  182   [7]  CD FD D5 DC FE FF 00
 (1742566874.752229)  can0  181   [7]  18 FE D8 C3 FE FF 00
 (1742566874.752453)  can0  282   [6]  18 00 C1 FF 03 01
 (1742566874.752653)  can0  281   [6]  44 00 BD FF 03 01
 (1742566874.756983)  can0  182   [7]  CD FD D5 DC FE FF 00
 (1742566874.757179)  can0  181   [7]  18 FE D8 C3 FE FF 00
 (1742566874.757402)  can0  281   [6]  44 00 BD FF 03 01
 (1742566874.757603)  can0  282   [6]  18 00 C1 FF 03 01
 (1742566874.762008)  can0  182   [7]  CD FD D5 DC FE FF 00
 (1742566874.762204)  can0  181   [7]  18 FE D8 C3 FE FF 00
 (1742566874.762427)  can0  281   [6]  44 00 BD FF 03 01
 (1742566874.762627)  can0  282   [6]  18 00 AC FF 03 01
 (1742566874.767007)  can0  182   [7]  B9 FD D4 DC FE FF 00
 (1742566874.767229)  can0  181   [7]  FF FD D7 C3 FE FF 00
 (1742566874.767452)  can0  282   [6]  18 00 C0 FF 03 01
 (1742566874.767652)  can0  281   [6]  44 00 BD FF 03 01
 (1742566874.768682)  can0  601   [8]  2B 43 40 00 E0 FC 00 00
 (1742566874.769057)  can0  581   [8]  60 43 40 00 00 00 00 00
 (1742566874.772007)  can0  182   [7]  B9 FD D4 DC FE FF 00
 (1742566874.772229)  can0  181   [7]  FF FD D7 C3 FE FF 00
 (1742566874.772427)  can0  281   [6]  44 00 BD FF 03 01
 (1742566874.772652)  can0  282   [6]  18 00 C0 FF 03 01
 (1742566874.777007)  can0  182   [7]  B9 FD D4 DC FE FF 00
 (1742566874.777254)  can0  181   [7]  FF FD D7 C3 FE FF 00
 (1742566874.777453)  can0  281   [6]  44 00 BD FF 03 01
 (1742566874.777652)  can0  282   [6]  18 00 AC FF 03 01
 (1742566874.778657)  can0  602   [8]  2B 43 40 00 E0 FC 00 00
 (1742566874.779006)  can0  582   [8]  60 43 40 00 00 00 00 00
 (1742566874.781957)  can0  182   [7]  AE FD D3 DC FE FF 00
 (1742566874.782179)  can0  181   [7]  EA FD D6 C3 FE FF 00
 (1742566874.782402)  can0  281   [6]  44 00 BC FF 04 01
 (1742566874.782603)  can0  282   [6]  16 00 C0 FF 03 01
 (1742566874.786984)  can0  182   [7]  AE FD D3 DC FE FF 00
 (1742566874.787205)  can0  181   [7]  EA FD D6 C3 FE FF 00
 (1742566874.787402)  can0  281   [6]  44 00 BC FF 04 01
 (1742566874.787628)  can0  282   [6]  16 00 C0 FF 03 01
 (1742566874.792007)  can0  182   [7]  AE FD D3 DC FE FF 00
 (1742566874.792253)  can0  181   [7]  EA FD D6 C3 FE FF 00
 (1742566874.792452)  can0  281   [6]  44 00 B7 FF 04 01
 (1742566874.792652)  can0  282   [6]  16 00 AC FF 03 01
 (1742566874.796982)  can0  182   [7]  9A FD D2 DC FE FF 00
 (1742566874.797206)  can0  181   [7]  D4 FD D5 C3 FE FF 00
 (1742566874.797402)  can0  281   [6]  44 00 BC FF 03 01
 (1742566874.797631)  can0  282   [6]  16 00 C0 FF 03 01
 (1742566874.802009)  can0  182   [7]  9A FD D2 DC FE FF 00
 (1742566874.802229)  can0  181   [7]  D4 FD D5 C3 FE FF 00
 (1742566874.802427)  can0  281   [6]  44 00 BC FF 03 01
 (1742566874.802652)  can0  282   [6]  16 00 AC FF 03 01
 (1742566874.806982)  can0  182   [7]  8D FD D1 DC FE FF 00
 (1742566874.807272)  can0  181   [7]  D4 FD D5 C3 FE FF 00
 (1742566874.807459)  can0  281   [6]  44 00 AD FF 03 01
 (1742566874.807683)  can0  282   [6]  16 00 C0 FF 03 01
 (1742566874.812097)  can0  182   [7]  8D FD D1 DC FE FF 00
 (1742566874.812285)  can0  181   [7]  BE FD D4 C3 FE FF 00
 (1742566874.812484)  can0  281   [6]  42 00 BC FF 03 01
 (1742566874.812718)  can0  282   [6]  16 00 C0 FF 03 01
 (1742566874.817103)  can0  182   [7]  8D FD D1 DC FE FF 00
 (1742566874.817286)  can0  181   [7]  BE FD D4 C3 FE FF 00
 (1742566874.817495)  can0  281   [6]  42 00 A8 FF 03 01
 (1742566874.817706)  can0  282   [6]  16 00 AC FF 03 01
 (1742566874.822045)  can0  182   [7]  8D FD D0 DC FE FF 00
 (1742566874.822282)  can0  181   [7]  BE FD D3 C3 FE FF 00
 (1742566874.822458)  can0  281   [6]  42 00 A8 FF 03 01
 (1742566874.822687)  can0  282   [6]  16 00 AC FF 03 01
 (1742566874.827080)  can0  182   [7]  7B FD D0 DC FE FF 00
 (1742566874.827276)  can0  181   [7]  A6 FD D3 C3 FE FF 00
 (1742566874.827460)  can0  282   [6]  16 00 AC FF 03 01
 (1742566874.827691)  can0  281   [6]  40 00 BB FF 03 01
 (1742566874.832070)  can0  181   [7]  A6 FD D3 C3 FE FF 00
 (1742566874.832292)  can0  182   [7]  7B FD D0 DC FE FF 00
 (1742566874.832488)  can0  281   [6]  40 00 A7 FF 03 01
 (1742566874.832704)  can0  282   [6]  16 00 AB FF 03 01
 (1742566874.833719)  can0  601   [8]  2B 43 40 00 72 FC 00 00
 (1742566874.834122)  can0  581   [8]  60 43 40 00 00 00 00 00
 (1742566874.837069)  can0  182   [7]  6F FD CF DC FE FF 00
 (1742566874.837235)  can0  181   [7]  8F FD D2 C3 FE FF 00
 (1742566874.837499)  can0  281   [6]  3E 00 BB FF 03 01
 (1742566874.837691)  can0  282   [6]  16 00 BF FF 03 01
 (1742566874.842073)  can0  182   [7]  6F FD CF DC FE FF 00
 (1742566874.842287)  can0  181   [7]  8F FD D2 C3 FE FF 00
 (1742566874.842514)  can0  282   [6]  16 00 AB FF 03 01
 (1742566874.842682)  can0  281   [6]  3E 00 AB FF 03 01
 (1742566874.843720)  can0  602   [8]  2B 43 40 00 72 FC 00 00
 (1742566874.844048)  can0  582   [8]  60 43 40 00 00 00 00 00
 (1742566874.847069)  can0  182   [7]  6F FD CF DC FE FF 00
 (1742566874.847229)  can0  181   [7]  8F FD D2 C3 FE FF 00
 (1742566874.847452)  can0  282   [6]  16 00 AB FF 03 01
 (1742566874.847652)  can0  281   [6]  3E 00 A7 FF 03 01
 (1742566874.852043)  can0  182   [7]  5F FD CE DC FE FF 00
 (1742566874.852266)  can0  181   [7]  78 FD D1 C3 FE FF 00
 (1742566874.852494)  can0  281   [6]  3A 00 BB FF 03 01
 (1742566874.852694)  can0  282   [6]  18 00 AB FF 03 01
 (1742566874.857070)  can0  182   [7]  5F FD CE DC FE FF 00
 (1742566874.857285)  can0  181   [7]  78 FD D1 C3 FE FF 00
 (1742566874.857494)  can0  281   [6]  3A 00 A7 FF 03 01
 (1742566874.857695)  can0  282   [6]  18 00 AB FF 03 01
 (1742566874.862070)  can0  182   [7]  51 FD CD DC FE FF 00
 (1742566874.862286)  can0  181   [7]  63 FD D0 C3 FE FF 00
 (1742566874.862497)  can0  281   [6]  38 00 BA FF 03 01
 (1742566874.862701)  can0  282   [6]  1B 00 BF FF 03 01
 (1742566874.867070)  can0  182   [7]  51 FD CD DC FE FF 00
 (1742566874.867285)  can0  181   [7]  63 FD D0 C3 FE FF 00
 (1742566874.867498)  can0  281   [6]  38 00 AA FF 04 01
 (1742566874.867695)  can0  282   [6]  1B 00 AB FF 03 01
 (1742566874.872042)  can0  182   [7]  51 FD CD DC FE FF 00
 (1742566874.872206)  can0  181   [7]  63 FD CF C3 FE FF 00
 (1742566874.872479)  can0  281   [6]  38 00 A6 FF 03 01
 (1742566874.872696)  can0  282   [6]  1B 00 AB FF 03 01
 (1742566874.877073)  can0  182   [7]  46 FD CC DC FE FF 00
 (1742566874.877203)  can0  181   [7]  51 FD CF C3 FE FF 00
 (1742566874.877511)  can0  281   [6]  36 00 AF FF 03 01
 (1742566874.877627)  can0  282   [6]  1B 00 AB FF 03 01
 (1742566874.882078)  can0  182   [7]  46 FD CC DC FE FF 00
 (1742566874.882358)  can0  181   [7]  51 FD CF C3 FE FF 00
 (1742566874.882431)  can0  282   [6]  1B 00 AA FF 03 01
 (1742566874.882720)  can0  281   [6]  36 00 A6 FF 03 01
 (1742566874.887045)  can0  182   [7]  31 FD CB DC FE FF 00
 (1742566874.887229)  can0  181   [7]  3B FD CE C3 FE FF 00
 (1742566874.887469)  can0  281   [6]  31 00 B5 FF 03 01
 (1742566874.887676)  can0  282   [6]  1D 00 AA FF 03 01
 (1742566874.892048)  can0  182   [7]  31 FD CB DC FE FF 00
 (1742566874.892230)  can0  181   [7]  3B FD CE C3 FE FF 00
 (1742566874.892487)  can0  281   [6]  31 00 A6 FF 03 01
 (1742566874.892694)  can0  282   [6]  1D 00 AA FF 03 01
 (1742566874.897073)  can0  182   [7]  31 FD CA DC FE FF 00
 (1742566874.897254)  can0  181   [7]  24 FD CD C3 FE FF 00
 (1742566874.897507)  can0  281   [6]  2F 00 A5 FF 03 01
 (1742566874.897722)  can0  282   [6]  1D 00 96 FF 03 01
 (1742566874.898754)  can0  601   [8]  2B 43 40 00 F6 FB 00 00
 (1742566874.899147)  can0  581   [8]  60 43 40 00 00 00 00 00
 (1742566874.902068)  can0  182   [7]  1F FD CA DC FE FF 00
 (1742566874.902334)  can0  181   [7]  24 FD CD C3 FE FF 00
 (1742566874.902427)  can0  281   [6]  2F 00 A5 FF 03 01
 (1742566874.902694)  can0  282   [6]  1F 00 AA FF 03 01
 (1742566874.907070)  can0  182   [7]  1F FD CA DC FE FF 00
 (1742566874.907320)  can0  181   [7]  24 FD CD C3 FE FF 00
 (1742566874.907434)  can0  281   [6]  2F 00 A5 FF 03 01
 (1742566874.907696)  can0  282   [6]  1F 00 96 FF 03 01
 (1742566874.908723)  can0  602   [8]  2B 43 40 00 F6 FB 00 00
 (1742566874.909055)  can0  582   [8]  60 43 40 00 00 00 00 00
 (1742566874.912044)  can0  182   [7]  10 FD C9 DC FE FF 00
 (1742566874.912212)  can0  181   [7]  0E FD CC C3 FE FF 00
 (1742566874.912478)  can0  282   [6]  1F 00 AA FF 03 01
 (1742566874.912628)  can0  281   [6]  2D 00 A5 FF 03 01
 (1742566874.917021)  can0  182   [7]  10 FD C9 DC FE FF 00
 (1742566874.917186)  can0  181   [7]  0E FD CC C3 FE FF 00
 (1742566874.917469)  can0  281   [6]  2D 00 A5 FF 03 01
 (1742566874.917700)  can0  282   [6]  1F 00 AA FF 03 01
 (1742566874.922019)  can0  182   [7]  F8 FC C8 DC FE FF 00
 (1742566874.922263)  can0  181   [7]  F9 FC CB C3 FE FF 00
 (1742566874.922382)  can0  281   [6]  2B 00 A5 FF 03 01
 (1742566874.922669)  can0  282   [6]  1D 00 AA FF 03 01
 (1742566874.927033)  can0  182   [7]  F8 FC C8 DC FE FF 00
 (1742566874.927286)  can0  181   [7]  F9 FC CB C3 FE FF 00
 (1742566874.927409)  can0  281   [6]  2B 00 A5 FF 03 01
 (1742566874.927673)  can0  282   [6]  1D 00 AA FF 03 01
 (1742566874.932093)  can0  182   [7]  ED FC C7 DC FE FF 00
 (1742566874.932229)  can0  181   [7]  E1 FC CA C3 FE FF 00
 (1742566874.932522)  can0  282   [6]  1F 00 A9 FF 03 01
 (1742566874.932733)  can0  281   [6]  29 00 A4 FF 03 01
 (1742566874.937024)  can0  182   [7]  ED FC C7 DC FE FF 00
 (1742566874.937291)  can0  181   [7]  E1 FC CA C3 FE FF 00
 (1742566874.937426)  can0  281   [6]  29 00 A4 FF 03 01
 (1742566874.937669)  can0  282   [6]  1F 00 A9 FF 03 01
 (1742566874.942069)  can0  182   [7]  ED FC C6 DC FE FF 00
 (1742566874.942305)  can0  181   [7]  CB FC C9 C3 FE FF 00
 (1742566874.942453)  can0  281   [6]  29 00 A4 FF 03 01
 (1742566874.942682)  can0  282   [6]  1F 00 95 FF 03 01
 (1742566874.947069)  can0  181   [7]  CB FC C9 C3 FE FF 00
 (1742566874.947301)  can0  182   [7]  D8 FC C6 DC FE FF 00
 (1742566874.947511)  can0  281   [6]  29 00 A4 FF 03 01
 (1742566874.947737)  can0  282   [6]  1D 00 A9 FF 03 01
 (1742566874.952072)  can0  182   [7]  D8 FC C5 DC FE FF 00
 (1742566874.952208)  can0  181   [7]  B3 FC C8 C3 FE FF 00
 (1742566874.952496)  can0  281   [6]  29 00 A4 FF 03 01
 (1742566874.952706)  can0  282   [6]  1D 00 95 FF 03 01
 (1742566874.957071)  can0  182   [7]  CA FC C5 DC FE FF 00
 (1742566874.957207)  can0  181   [7]  B3 FC C8 C3 FE FF 00
 (1742566874.957494)  can0  281   [6]  29 00 A4 FF 03 01
 (1742566874.957713)  can0  282   [6]  1F 00 A9 FF 03 01
 (1742566874.962028)  can0  182   [7]  CA FC C5 DC FE FF 00
 (1742566874.962245)  can0  181   [7]  9E FC C7 C3 FE FF 00
 (1742566874.962478)  can0  281   [6]  27 00 A3 FF 02 01
 (1742566874.962683)  can0  282   [6]  1F 00 95 FF 03 01
 (1742566874.963722)  can0  601   [8]  2B 43 40 00 6D FB 00 00
 (1742566874.964056)  can0  581   [8]  60 43 40 00 00 00 00 00
 (1742566874.967070)  can0  182   [7]  B3 FC C4 DC FE FF 00
 (1742566874.967237)  can0  181   [7]  9E FC C7 C3 FE FF 00
 (1742566874.967501)  can0  281   [6]  27 00 A3 FF 03 01
 (1742566874.967719)  can0  282   [6]  1F 00 A9 FF 03 01
 (1742566874.972028)  can0  182   [7]  B3 FC C4 DC FE FF 00
 (1742566874.972262)  can0  181   [7]  8D FC C6 C3 FE FF 00
 (1742566874.972401)  can0  281   [6]  25 00 A3 FF 03 01
 (1742566874.972672)  can0  282   [6]  1F 00 94 FF 03 01
 (1742566874.973729)  can0  602   [8]  2B 43 40 00 6D FB 00 00
 (1742566874.974076)  can0  582   [8]  60 43 40 00 00 00 00 00
 (1742566874.977047)  can0  182   [7]  A4 FC C3 DC FE FF 00
 (1742566874.977263)  can0  181   [7]  8D FC C6 C3 FE FF 00
 (1742566874.977483)  can0  281   [6]  25 00 8F FF 03 01
 (1742566874.977699)  can0  282   [6]  1F 00 A8 FF 03 01
 (1742566874.982067)  can0  182   [7]  A4 FC C3 DC FE FF 00
 (1742566874.982318)  can0  181   [7]  78 FC C5 C3 FE FF 00
 (1742566874.982429)  can0  282   [6]  1F 00 94 FF 03 01
 (1742566874.982697)  can0  281   [6]  23 00 A3 FF 03 01
 (1742566874.987020)  can0  182   [7]  8C FC C2 DC FE FF 00
 (1742566874.987254)  can0  181   [7]  78 FC C5 C3 FE FF 00
 (1742566874.987403)  can0  281   [6]  23 00 8F FF 03 01
 (1742566874.987668)  can0  282   [6]  1D 00 94 FF 03 01
 (1742566874.992044)  can0  182   [7]  8C FC C2 DC FE FF 00
 (1742566874.992229)  can0  181   [7]  64 FC C4 C3 FE FF 00
 (1742566874.992481)  can0  281   [6]  21 00 A2 FF 03 01
 (1742566874.992685)  can0  282   [6]  1D 00 94 FF 03 01
 (1742566874.997072)  can0  182   [7]  80 FC C1 DC FE FF 00
 (1742566874.997300)  can0  181   [7]  64 FC C4 C3 FE FF 00
 (1742566874.997514)  can0  282   [6]  1F 00 94 FF 03 01
 (1742566874.997721)  can0  281   [6]  21 00 8E FF 03 01
 (1742566875.002046)  can0  182   [7]  80 FC C1 DC FE FF 00
 (1742566875.002229)  can0  181   [7]  53 FC C3 C3 FE FF 00
 (1742566875.002471)  can0  282   [6]  1F 00 94 FF 03 01
 (1742566875.002697)  can0  281   [6]  21 00 A2 FF 03 01
 (1742566875.007068)  can0  182   [7]  67 FC C0 DC FE FF 00
 (1742566875.007254)  can0  181   [7]  53 FC C3 C3 FE FF 00
 (1742566875.007508)  can0  281   [6]  21 00 8E FF 03 01
 (1742566875.007721)  can0  282   [6]  1F 00 93 FF 03 01
 (1742566875.012043)  can0  182   [7]  67 FC BF DC FE FF 00
 (1742566875.012285)  can0  181   [7]  3F FC C2 C3 FE FF 00
 (1742566875.012406)  can0  281   [6]  21 00 8E FF 03 01
 (1742566875.012693)  can0  282   [6]  1F 00 93 FF 03 01
 (1742566875.017043)  can0  182   [7]  5A FC BF DC FE FF 00
 (1742566875.017307)  can0  181   [7]  3F FC C2 C3 FE FF 00
 (1742566875.017521)  can0  281   [6]  21 00 8D FF 03 01
 (1742566875.017652)  can0  282   [6]  1F 00 93 FF 03 01
 (1742566875.022077)  can0  182   [7]  5A FC BF DC FE FF 00
 (1742566875.022335)  can0  181   [7]  28 FC C1 C3 FE FF 00
 (1742566875.022454)  can0  282   [6]  1F 00 7F FF 03 01
 (1742566875.022721)  can0  281   [6]  21 00 8D FF 03 01
 (1742566875.027044)  can0  182   [7]  46 FC BE DC FE FF 00
 (1742566875.027228)  can0  181   [7]  28 FC C0 C3 FE FF 00
 (1742566875.027474)  can0  281   [6]  21 00 8D FF 03 01
 (1742566875.027690)  can0  282   [6]  21 00 93 FF 03 01
 (1742566875.028718)  can0  601   [8]  2B 43 40 00 DB FA 00 00
 (1742566875.029106)  can0  581   [8]  60 43 40 00 00 00 00 00
 (1742566875.032018)  can0  182   [7]  46 FC BD DC FE FF 00
 (1742566875.032266)  can0  181   [7]  13 FC C0 C3 FE FF 00
 (1742566875.032488)  can0  281   [6]  21 00 8D FF 03 01
 (1742566875.032627)  can0  282   [6]  21 00 7F FF 03 01
 (1742566875.037020)  can0  182   [7]  37 FC BD DC FE FF 00
 (1742566875.037269)  can0  181   [7]  FF FB BF C3 FE FF 00
 (1742566875.037427)  can0  282   [6]  21 00 93 FF 03 01
 (1742566875.037667)  can0  281   [6]  21 00 A1 FF 03 01
 (1742566875.038738)  can0  602   [8]  2B 43 40 00 DB FA 00 00
 (1742566875.039062)  can0  582   [8]  60 43 40 00 00 00 00 00
 (1742566875.042078)  can0  181   [7]  FF FB BF C3 FE FF 00
 (1742566875.042254)  can0  182   [7]  20 FC BC DC FE FF 00
 (1742566875.042494)  can0  281   [6]  21 00 8D FF 03 01
 (1742566875.042716)  can0  282   [6]  25 00 92 FF 03 01
 (1742566875.047017)  can0  182   [7]  20 FC BC DC FE FF 00
 (1742566875.047268)  can0  181   [7]  EF FB BE C3 FE FF 00
 (1742566875.047399)  can0  281   [6]  23 00 8D FF 03 01
 (1742566875.047695)  can0  282   [6]  25 00 92 FF 03 01
 (1742566875.052043)  can0  182   [7]  0D FC BB DC FE FF 00
 (1742566875.052228)  can0  181   [7]  EF FB BE C3 FE FF 00
 (1742566875.052493)  can0  281   [6]  23 00 8D FF 03 01
 (1742566875.052700)  can0  282   [6]  25 00 92 FF 03 01
 (1742566875.057067)  can0  182   [7]  0D FC BB DC FE FF 00
 (1742566875.057308)  can0  181   [7]  E1 FB BD C3 FE FF 00
 (1742566875.057527)  can0  281   [6]  23 00 8D FF 03 01
 (1742566875.057632)  can0  282   [6]  25 00 7E FF 03 01
 (1742566875.062044)  can0  182   [7]  F8 FB BA DC FE FF 00
 (1742566875.062229)  can0  181   [7]  E1 FB BC C3 FE FF 00
 (1742566875.062471)  can0  281   [6]  23 00 79 FF 03 01
 (1742566875.062681)  can0  282   [6]  27 00 92 FF 03 01
 (1742566875.067069)  can0  182   [7]  E4 FB B9 DC FE FF 00
 (1742566875.067254)  can0  181   [7]  D4 FB BC C3 FE FF 00
 (1742566875.067493)  can0  281   [6]  23 00 8D FF 03 01
 (1742566875.067720)  can0  282   [6]  27 00 92 FF 03 01
 (1742566875.072048)  can0  182   [7]  E4 FB B9 DC FE FF 00
 (1742566875.072211)  can0  181   [7]  C0 FB BB C3 FE FF 00
 (1742566875.072468)  can0  282   [6]  27 00 7E FF 03 01
 (1742566875.072718)  can0  281   [6]  25 00 8D FF 03 01
 (1742566875.077067)  can0  182   [7]  CD FB B8 DC FE FF 00
 (1742566875.077327)  can0  181   [7]  C0 FB BB C3 FE FF 00
 (1742566875.077451)  can0  281   [6]  25 00 79 FF 03 01
 (1742566875.077701)  can0  282   [6]  29 00 92 FF 03 01
 (1742566875.082021)  can0  182   [7]  CD FB B8 DC FE FF 00
 (1742566875.082178)  can0  181   [7]  AC FB BA C3 FE FF 00
 (1742566875.082450)  can0  281   [6]  25 00 8D FF 03 01
 (1742566875.082672)  can0  282   [6]  29 00 7E FF 03 01
 (1742566875.087043)  can0  182   [7]  BB FB B7 DC FE FF 00
 (1742566875.087298)  can0  181   [7]  AC FB B9 C3 FE FF 00
 (1742566875.087508)  can0  281   [6]  25 00 79 FF 03 01
 (1742566875.087705)  can0  282   [6]  27 00 7E FF 03 01
 (1742566875.092068)  can0  181   [7]  9A FB B9 C3 FE FF 00
 (1742566875.092203)  can0  182   [7]  BB FB B6 DC FE FF 00
 (1742566875.092486)  can0  281   [6]  25 00 79 FF 03 01
 (1742566875.092687)  can0  282   [6]  27 00 7E FF 03 01
 (1742566875.093745)  can0  601   [8]  2B 43 40 00 41 FA 00 00
 (1742566875.094030)  can0  581   [8]  60 43 40 00 00 00 00 00
 (1742566875.097042)  can0  182   [7]  A5 FB B6 DC FE FF 00
 (1742566875.097181)  can0  181   [7]  84 FB B8 C3 FE FF 00
 (1742566875.097401)  can0  281   [6]  27 00 8D FF 03 01
 (1742566875.097681)  can0  282   [6]  29 00 7E FF 03 01
 (1742566875.102017)  can0  182   [7]  93 FB B5 DC FE FF 00
 (1742566875.102178)  can0  181   [7]  84 FB B8 C3 FE FF 00
 (1742566875.102442)  can0  281   [6]  27 00 79 FF 03 01
 (1742566875.102668)  can0  282   [6]  29 00 7E FF 03 01
 (1742566875.103765)  can0  602   [8]  2B 43 40 00 41 FA 00 00
 (1742566875.105043)  can0  582   [8]  60 43 40 00 00 00 00 00
 (1742566875.107068)  can0  182   [7]  93 FB B5 DC FE FF 00
 (1742566875.107322)  can0  181   [7]  73 FB B7 C3 FE FF 00
 (1742566875.107451)  can0  282   [6]  29 00 7E FF 03 01
 (1742566875.107695)  can0  281   [6]  27 00 79 FF 03 01
 (1742566875.112054)  can0  182   [7]  7F FB B4 DC FE FF 00
 (1742566875.112317)  can0  181   [7]  64 FB B6 C3 FE FF 00
 (1742566875.112405)  can0  281   [6]  27 00 8D FF 03 01
 (1742566875.112693)  can0  282   [6]  2B 00 7E FF 03 01
 (1742566875.116965)  can0  182   [7]  6E FB B3 DC FE FF 00
 (1742566875.117152)  can0  181   [7]  64 FB B6 C3 FE FF 00
 (1742566875.117443)  can0  281   [6]  27 00 79 FF 03 01
 (1742566875.117577)  can0  282   [6]  2B 00 7E FF 03 01
 (1742566875.122043)  can0  182   [7]  6E FB B3 DC FE FF 00
 (1742566875.122188)  can0  181   [7]  51 FB B5 C3 FE FF 00
 (1742566875.122468)  can0  281   [6]  27 00 79 FF 03 01
 (1742566875.122672)  can0  282   [6]  2B 00 7E FF 03 01
 (1742566875.127025)  can0  182   [7]  5C FB B2 DC FE FF 00
 (1742566875.127229)  can0  181   [7]  44 FB B4 C3 FE FF 00
 (1742566875.127502)  can0  282   [6]  2B 00 7E FF 03 01
 (1742566875.127687)  can0  281   [6]  29 00 8D FF 03 01
 (1742566875.132042)  can0  182   [7]  4A FB B1 DC FE FF 00
 (1742566875.132180)  can0  181   [7]  44 FB B4 C3 FE FF 00
 (1742566875.132456)  can0  281   [6]  29 00 79 FF 03 01
 (1742566875.132654)  can0  282   [6]  29 00 7E FF 03 01
 (1742566875.137050)  can0  182   [7]  4A FB B1 DC FE FF 00
 (1742566875.137286)  can0  181   [7]  35 FB B3 C3 FE FF 00
 (1742566875.137476)  can0  281   [6]  29 00 79 FF 03 01
 (1742566875.137670)  can0  282   [6]  29 00 7E FF 03 01
 (1742566875.142020)  can0  182   [7]  3E FB B0 DC FE FF 00
 (1742566875.142183)  can0  181   [7]  35 FB B2 C3 FE FF 00
 (1742566875.142376)  can0  281   [6]  29 00 65 FF 03 01
 (1742566875.142601)  can0  282   [6]  29 00 7E FF 03 01
 (1742566875.146980)  can0  182   [7]  32 FB AF DC FE FF 00
 (1742566875.147202)  can0  181   [7]  24 FB B2 C3 FE FF 00
 (1742566875.147401)  can0  281   [6]  2B 00 79 FF 03 01
 (1742566875.147601)  can0  282   [6]  29 00 7E FF 03 01
 (1742566875.152006)  can0  182   [7]  32 FB AF DC FE FF 00
 (1742566875.152310)  can0  181   [7]  13 FB B1 C3 FE FF 00
 (1742566875.152427)  can0  281   [6]  2D 00 79 FF 03 01
 (1742566875.152626)  can0  282   [6]  29 00 7E FF 03 01
 (1742566875.156956)  can0  182   [7]  21 FB AE DC FE FF 00
 (1742566875.157296)  can0  181   [7]  02 FB B0 C3 FE FF 00
 (1742566875.157392)  can0  281   [6]  2D 00 79 FF 03 01
 (1742566875.157687)  can0  282   [6]  29 00 7E FF 03 01
 (1742566875.158745)  can0  601   [8]  2B 43 40 00 90 F9 00 00
 (1742566875.159006)  can0  581   [8]  60 43 40 00 00 00 00 00
 (1742566875.162053)  can0  182   [7]  13 FB AD DC FE FF 00
 (1742566875.162183)  can0  181   [7]  02 FB B0 C3 FE FF 00
 (1742566875.162466)  can0  281   [6]  2D 00 79 FF 02 01
 (1742566875.162672)  can0  282   [6]  29 00 7E FF 03 01
 (1742566875.167046)  can0  182   [7]  13 FB AD DC FE FF 00
 (1742566875.167203)  can0  181   [7]  F2 FA AF C3 FE FF 00
 (1742566875.167503)  can0  281   [6]  2D 00 79 FF 03 01
 (1742566875.167623)  can0  282   [6]  29 00 6A FF 03 01
 (1742566875.168731)  can0  602   [8]  2B 43 40 00 90 F9 00 00
 (1742566875.169061)  can0  582   [8]  60 43 40 00 00 00 00 00
 (1742566875.172085)  can0  182   [7]  00 FB AC DC FE FF 00
 (1742566875.172209)  can0  181   [7]  E5 FA AE C3 FE FF 00
 (1742566875.172461)  can0  281   [6]  2D 00 79 FF 03 01
 (1742566875.172666)  can0  282   [6]  2B 00 7E FF 03 01
 (1742566875.177098)  can0  182   [7]  F2 FA AB DC FE FF 00
 (1742566875.177324)  can0  181   [7]  E5 FA AD C3 FE FF 00
 (1742566875.177432)  can0  281   [6]  2D 00 65 FF 03 01
 (1742566875.177747)  can0  282   [6]  2B 00 7E FF 03 01
 (1742566875.182069)  can0  182   [7]  F2 FA AB DC FE FF 00
 (1742566875.182227)  can0  181   [7]  D2 FA AD C3 FE FF 00
 (1742566875.182488)  can0  281   [6]  2D 00 79 FF 03 01
 (1742566875.182688)  can0  282   [6]  2B 00 6A FF 03 01
 (1742566875.187046)  can0  182   [7]  E0 FA AA DC FE FF 00
 (1742566875.187178)  can0  181   [7]  C2 FA AC C3 FE FF 00
 (1742566875.187483)  can0  281   [6]  2B 00 79 FF 03 01
 (1742566875.187676)  can0  282   [6]  2B 00 6A FF 03 01
 (1742566875.192077)  can0  182   [7]  D6 FA A9 DC FE FF 00
 (1742566875.192225)  can0  181   [7]  B3 FA AB C3 FE FF 00
 (1742566875.192524)  can0  281   [6]  2B 00 79 FF 03 01
 (1742566875.192630)  can0  282   [6]  2B 00 7E FF 03 01
 (1742566875.197095)  can0  182   [7]  D6 FA A8 DC FE FF 00
 (1742566875.197229)  can0  181   [7]  B3 FA AB C3 FE FF 00
 (1742566875.197488)  can0  282   [6]  2B 00 6A FF 03 01
 (1742566875.197701)  can0  281   [6]  2B 00 65 FF 03 01
 (1742566875.202042)  can0  182   [7]  C0 FA A8 DC FE FF 00
 (1742566875.202202)  can0  181   [7]  A1 FA AA C3 FE FF 00
 (1742566875.202483)  can0  281   [6]  29 00 65 FF 03 01
 (1742566875.202676)  can0  282   [6]  2B 00 6A FF 03 01
 (1742566875.207067)  can0  182   [7]  B2 FA A7 DC FE FF 00
 (1742566875.207341)  can0  181   [7]  91 FA A9 C3 FE FF 00
 (1742566875.207425)  can0  282   [6]  29 00 6A FF 03 01
 (1742566875.207734)  can0  281   [6]  2B 00 79 FF 03 01
 (1742566875.212067)  can0  182   [7]  A0 FA A6 DC FE FF 00
 (1742566875.212226)  can0  181   [7]  7D FA A8 C3 FE FF 00
 (1742566875.212513)  can0  281   [6]  29 00 79 FF 03 01
 (1742566875.212715)  can0  282   [6]  2B 00 6A FF 03 01
 (1742566875.217092)  can0  182   [7]  A0 FA A5 DC FE FF 00
 (1742566875.217253)  can0  181   [7]  7D FA A8 C3 FE FF 00
 (1742566875.217488)  can0  282   [6]  2B 00 6A FF 03 01
 (1742566875.217694)  can0  281   [6]  29 00 65 FF 03 01
 (1742566875.222045)  can0  182   [7]  92 FA A5 DC FE FF 00
 (1742566875.222180)  can0  181   [7]  6D FA A7 C3 FE FF 00
 (1742566875.222460)  can0  281   [6]  29 00 65 FF 03 01
 (1742566875.222708)  can0  282   [6]  2B 00 6A FF 03 01
 (1742566875.223744)  can0  601   [8]  2B 43 40 00 D7 F8 00 00
 (1742566875.224091)  can0  581   [8]  60 43 40 00 00 00 00 00
 (1742566875.227070)  can0  182   [7]  7F FA A4 DC FE FF 00
 (1742566875.227347)  can0  181   [7]  5B FA A6 C3 FE FF 00
 (1742566875.227425)  can0  281   [6]  29 00 65 FF 03 01
 (1742566875.227707)  can0  282   [6]  2B 00 6A FF 03 01
 (1742566875.232068)  can0  182   [7]  6E FA A3 DC FE FF 00
 (1742566875.232227)  can0  181   [7]  4A FA A5 C3 FE FF 00
 (1742566875.232468)  can0  281   [6]  29 00 65 FF 03 01
 (1742566875.232691)  can0  282   [6]  2D 00 6A FF 03 01
 (1742566875.233744)  can0  602   [8]  2B 43 40 00 D7 F8 00 00
 (1742566875.234081)  can0  582   [8]  60 43 40 00 00 00 00 00
 (1742566875.237069)  can0  182   [7]  6E FA A2 DC FE FF 00
 (1742566875.237226)  can0  181   [7]  4A FA A4 C3 FE FF 00
 (1742566875.237488)  can0  281   [6]  29 00 65 FF 03 01
 (1742566875.237626)  can0  282   [6]  2D 00 56 FF 03 01
 (1742566875.242109)  can0  182   [7]  5C FA A2 DC FE FF 00
 (1742566875.242229)  can0  181   [7]  3B FA A4 C3 FE FF 00
 (1742566875.242514)  can0  282   [6]  2B 00 56 FF 03 01
 (1742566875.242652)  can0  281   [6]  29 00 65 FF 03 01
 (1742566875.247043)  can0  182   [7]  4C FA A1 DC FE FF 00
 (1742566875.247178)  can0  181   [7]  2C FA A3 C3 FE FF 00
 (1742566875.247479)  can0  281   [6]  29 00 65 FF 03 01
 (1742566875.247607)  can0  282   [6]  2B 00 6A FF 03 01
 (1742566875.252019)  can0  182   [7]  39 FA A0 DC FE FF 00
 (1742566875.252288)  can0  181   [7]  1A FA A2 C3 FE FF 00
 (1742566875.252375)  can0  281   [6]  29 00 65 FF 03 01
 (1742566875.252665)  can0  282   [6]  2B 00 6A FF 03 01
 (1742566875.257068)  can0  182   [7]  2C FA 9F DC FE FF 00
 (1742566875.257210)  can0  181   [7]  0C FA A1 C3 FE FF 00
 (1742566875.257493)  can0  281   [6]  29 00 65 FF 03 01
 (1742566875.257675)  can0  282   [6]  2B 00 6A FF 03 01
 (1742566875.262093)  can0  182   [7]  2C FA 9F DC FE FF 00
 (1742566875.262234)  can0  181   [7]  0C FA A0 C3 FE FF 00
 (1742566875.262508)  can0  282   [6]  2B 00 56 FF 03 01
 (1742566875.262651)  can0  281   [6]  29 00 51 FF 03 01
 (1742566875.267049)  can0  182   [7]  15 FA 9E DC FE FF 00
 (1742566875.267182)  can0  181   [7]  FB F9 A0 C3 FE FF 00
 (1742566875.267481)  can0  281   [6]  29 00 51 FF 03 01
 (1742566875.267695)  can0  282   [6]  29 00 56 FF 03 01
 (1742566875.272044)  can0  182   [7]  01 FA 9D DC FE FF 00
 (1742566875.272180)  can0  181   [7]  E9 F9 9F C3 FE FF 00
 (1742566875.272433)  can0  281   [6]  29 00 51 FF 03 01
 (1742566875.272651)  can0  282   [6]  29 00 56 FF 03 01
 (1742566875.277041)  can0  182   [7]  F0 F9 9C DC FE FF 00
 (1742566875.277296)  can0  181   [7]  DC F9 9E C3 FE FF 00
 (1742566875.277423)  can0  281   [6]  29 00 65 FF 02 01
 (1742566875.277689)  can0  282   [6]  29 00 56 FF 03 01
 (1742566875.282048)  can0  182   [7]  E0 F9 9B DC FE FF 00
 (1742566875.282262)  can0  181   [7]  CA F9 9D C3 FE FF 00
 (1742566875.282457)  can0  281   [6]  29 00 65 FF 02 01
 (1742566875.282671)  can0  282   [6]  29 00 56 FF 03 01
 (1742566875.287043)  can0  182   [7]  E0 F9 9A DC FE FF 00
 (1742566875.287249)  can0  181   [7]  B8 F9 9C C3 FE FF 00
 (1742566875.287462)  can0  281   [6]  29 00 65 FF 02 01
 (1742566875.287735)  can0  282   [6]  29 00 56 FF 03 01
 (1742566875.288763)  can0  601   [8]  2B 43 40 00 1D F8 00 00
 (1742566875.289084)  can0  581   [8]  60 43 40 00 00 00 00 00
 (1742566875.292044)  can0  182   [7]  CB F9 99 DC FE FF 00
 (1742566875.292260)  can0  181   [7]  B8 F9 9B C3 FE FF 00
 (1742566875.292457)  can0  281   [6]  29 00 51 FF 03 01
 (1742566875.292667)  can0  282   [6]  29 00 56 FF 03 01
 (1742566875.297033)  can0  182   [7]  B9 F9 99 DC FE FF 00
 (1742566875.297245)  can0  181   [7]  A6 F9 9B C3 FE FF 00
 (1742566875.297461)  can0  281   [6]  27 00 51 FF 03 01
 (1742566875.297669)  can0  282   [6]  29 00 56 FF 03 01
 (1742566875.298732)  can0  602   [8]  2B 43 40 00 1D F8 00 00
 (1742566875.299085)  can0  582   [8]  60 43 40 00 00 00 00 00
 (1742566875.302076)  can0  182   [7]  A5 F9 98 DC FE FF 00
 (1742566875.302306)  can0  181   [7]  93 F9 9A C3 FE FF 00
 (1742566875.302499)  can0  282   [6]  29 00 56 FF 03 01
 (1742566875.302625)  can0  281   [6]  27 00 51 FF 03 01
 (1742566875.307043)  can0  182   [7]  97 F9 97 DC FE FF 00
 (1742566875.307178)  can0  181   [7]  83 F9 99 C3 FE FF 00
 (1742566875.307460)  can0  281   [6]  27 00 51 FF 03 01
 (1742566875.307681)  can0  282   [6]  29 00 56 FF 03 01
 (1742566875.312097)  can0  182   [7]  89 F9 96 DC FE FF 00
 (1742566875.312201)  can0  181   [7]  72 F9 98 C3 FE FF 00
 (1742566875.312509)  can0  281   [6]  27 00 51 FF 02 01
 (1742566875.312651)  can0  282   [6]  29 00 56 FF 03 01
 (1742566875.317046)  can0  182   [7]  7D F9 95 DC FE FF 00
 (1742566875.317184)  can0  181   [7]  61 F9 97 C3 FE FF 00
 (1742566875.317431)  can0  281   [6]  27 00 51 FF 02 01
 (1742566875.317684)  can0  282   [6]  2B 00 56 FF 03 01
 (1742566875.322070)  can0  182   [7]  69 F9 94 DC FE FF 00
 (1742566875.322235)  can0  181   [7]  54 F9 96 C3 FE FF 00
 (1742566875.322482)  can0  282   [6]  2B 00 56 FF 03 01
 (1742566875.322686)  can0  281   [6]  27 00 51 FF 02 01
 (1742566875.327017)  can0  182   [7]  5D F9 93 DC FE FF 00
 (1742566875.327265)  can0  181   [7]  43 F9 95 C3 FE FF 00
 (1742566875.327486)  can0  281   [6]  27 00 51 FF 02 01
 (1742566875.327685)  can0  282   [6]  2B 00 56 FF 03 01
 (1742566875.332074)  can0  182   [7]  5D F9 93 DC FE FF 00
 (1742566875.332226)  can0  181   [7]  30 F9 94 C3 FE FF 00
 (1742566875.332474)  can0  281   [6]  29 00 51 FF 03 01
 (1742566875.332695)  can0  282   [6]  2B 00 42 FF 03 01
 (1742566875.337043)  can0  182   [7]  4C F9 91 DC FE FF 00
 (1742566875.337178)  can0  181   [7]  30 F9 93 C3 FE FF 00
 (1742566875.337484)  can0  281   [6]  29 00 3D FF 03 01
 (1742566875.337600)  can0  282   [6]  2D 00 42 FF 03 01
 (1742566875.342094)  can0  182   [7]  42 F9 91 DC FE FF 00
 (1742566875.342201)  can0  181   [7]  27 F9 92 C3 FE FF 00
 (1742566875.342494)  can0  281   [6]  29 00 3D FF 03 01
 (1742566875.342702)  can0  282   [6]  2D 00 42 FF 03 01
 (1742566875.347023)  can0  182   [7]  2E F9 90 DC FE FF 00
 (1742566875.347176)  can0  181   [7]  0F F9 91 C3 FE FF 00
 (1742566875.347374)  can0  281   [6]  29 00 3D FF 02 01
 (1742566875.347682)  can0  282   [6]  2D 00 42 FF 03 01
 (1742566875.352081)  can0  182   [7]  26 F9 8F DC FE FF 00
 (1742566875.352330)  can0  181   [7]  FC F8 90 C3 FE FF 00
 (1742566875.352450)  can0  282   [6]  2D 00 42 FF 03 01
 (1742566875.352624)  can0  281   [6]  29 00 3D FF 02 01
 (1742566875.353796)  can0  601   [8]  2B 43 40 00 59 F7 00 00
 (1742566875.354088)  can0  581   [8]  60 43 40 00 00 00 00 00
 (1742566875.356988)  can0  182   [7]  13 F9 8E DC FE FF 00
 (1742566875.357206)  can0  181   [7]  EB F8 8F C3 FE FF 00
 (1742566875.357399)  can0  281   [6]  29 00 3D FF 02 01
 (1742566875.357599)  can0  282   [6]  2D 00 42 FF 03 01
 (1742566875.361955)  can0  182   [7]  09 F9 8D DC FE FF 00
 (1742566875.362180)  can0  181   [7]  DB F8 8F C3 FE FF 00
 (1742566875.362375)  can0  282   [6]  2D 00 42 FF 03 01
 (1742566875.362574)  can0  281   [6]  29 00 3D FF 02 01
 (1742566875.363655)  can0  602   [8]  2B 43 40 00 59 F7 00 00
 (1742566875.363954)  can0  582   [8]  60 43 40 00 00 00 00 00
 (1742566875.366955)  can0  182   [7]  F8 F8 8C DC FE FF 00
 (1742566875.367177)  can0  181   [7]  C9 F8 8E C3 FE FF 00
 (1742566875.367375)  can0  281   [6]  27 00 3D FF 03 01
 (1742566875.367575)  can0  282   [6]  2F 00 42 FF 03 01
 (1742566875.371980)  can0  182   [7]  E8 F8 8B DC FE FF 00
 (1742566875.372201)  can0  181   [7]  BC F8 8D C3 FE FF 00
 (1742566875.372400)  can0  282   [6]  2F 00 42 FF 03 01
 (1742566875.372625)  can0  281   [6]  27 00 3D FF 03 01
 (1742566875.376954)  can0  182   [7]  DC F8 8A DC FE FF 00
 (1742566875.377176)  can0  181   [7]  AA F8 8C C3 FE FF 00
 (1742566875.377377)  can0  281   [6]  27 00 3D FF 02 01
 (1742566875.377573)  can0  282   [6]  31 00 42 FF 03 01
 (1742566875.381980)  can0  182   [7]  C6 F8 89 DC FE FF 00
 (1742566875.382203)  can0  181   [7]  9A F8 8B C3 FE FF 00
 (1742566875.382425)  can0  281   [6]  27 00 3D FF 02 01
 (1742566875.382625)  can0  282   [6]  34 00 42 FF 03 01
 (1742566875.386954)  can0  182   [7]  B6 F8 88 DC FE FF 00
 (1742566875.387178)  can0  181   [7]  8B F8 8A C3 FE FF 00
 (1742566875.387375)  can0  281   [6]  27 00 3D FF 02 01
 (1742566875.387576)  can0  282   [6]  34 00 42 FF 03 01
 (1742566875.392005)  can0  182   [7]  AC F8 87 DC FE FF 00
 (1742566875.392226)  can0  181   [7]  80 F8 89 C3 FE FF 00
 (1742566875.392424)  can0  282   [6]  34 00 42 FF 03 01
 (1742566875.392649)  can0  281   [6]  25 00 3D FF 03 01
 (1742566875.396954)  can0  182   [7]  90 F8 86 DC FE FF 00
 (1742566875.397175)  can0  181   [7]  75 F8 88 C3 FE FF 00
 (1742566875.397373)  can0  281   [6]  25 00 3D FF 03 01
 (1742566875.397573)  can0  282   [6]  34 00 42 FF 03 01
 (1742566875.402005)  can0  182   [7]  80 F8 85 DC FE FF 00
 (1742566875.402225)  can0  181   [7]  65 F8 87 C3 FE FF 00
 (1742566875.402424)  can0  281   [6]  25 00 3D FF 03 01
 (1742566875.402649)  can0  282   [6]  34 00 42 FF 03 01
 (1742566875.406954)  can0  182   [7]  6F F8 84 DC FE FF 00
 (1742566875.407178)  can0  181   [7]  61 F8 86 C3 FE FF 00
 (1742566875.407374)  can0  281   [6]  25 00 29 FF 02 01
 (1742566875.407599)  can0  282   [6]  34 00 42 FF 03 01
 (1742566875.411929)  can0  182   [7]  59 F8 83 DC FE FF 00
 (1742566875.412151)  can0  181   [7]  51 F8 85 C3 FE FF 00
 (1742566875.412375)  can0  281   [6]  25 00 29 FF 02 01
 (1742566875.412575)  can0  282   [6]  34 00 42 FF 03 01
 (1742566875.416954)  can0  182   [7]  46 F8 82 DC FE FF 00
 (1742566875.417177)  can0  181   [7]  48 F8 84 C3 FE FF 00
 (1742566875.417400)  can0  281   [6]  27 00 29 FF 03 01
 (1742566875.417600)  can0  282   [6]  34 00 2E FF 03 01
 (1742566875.418657)  can0  601   [8]  2B 43 40 00 95 F6 00 00
 (1742566875.419031)  can0  581   [8]  60 43 40 00 00 00 00 00
 (1742566875.421982)  can0  182   [7]  34 F8 81 DC FE FF 00
 (1742566875.422202)  can0  181   [7]  38 F8 83 C3 FE FF 00
 (1742566875.422401)  can0  281   [6]  27 00 29 FF 02 01
 (1742566875.422601)  can0  282   [6]  34 00 2E FF 03 01
 (1742566875.427042)  can0  182   [7]  25 F8 80 DC FE FF 00
 (1742566875.427274)  can0  181   [7]  2B F8 81 C3 FE FF 00
 (1742566875.427476)  can0  281   [6]  29 00 29 FF 03 01
 (1742566875.427751)  can0  282   [6]  34 00 2E FF 03 01
 (1742566875.428723)  can0  602   [8]  2B 43 40 00 95 F6 00 00
 (1742566875.429065)  can0  582   [8]  60 43 40 00 00 00 00 00
 (1742566875.432044)  can0  182   [7]  1E F8 7F DC FE FF 00
 (1742566875.432183)  can0  181   [7]  18 F8 80 C3 FE FF 00
 (1742566875.432440)  can0  281   [6]  29 00 29 FF 03 01
 (1742566875.432725)  can0  282   [6]  31 00 2E FF 03 01
 (1742566875.437074)  can0  182   [7]  0B F8 7E DC FE FF 00
 (1742566875.437226)  can0  181   [7]  F9 F7 7F C3 FE FF 00
 (1742566875.437488)  can0  281   [6]  2B 00 3D FF 02 01
 (1742566875.437680)  can0  282   [6]  31 00 2E FF 03 01
 (1742566875.442057)  can0  182   [7]  05 F8 7D DC FE FF 00
 (1742566875.442295)  can0  181   [7]  EC F7 7E C3 FE FF 00
 (1742566875.442373)  can0  281   [6]  2B 00 3D FF 02 01
 (1742566875.442661)  can0  282   [6]  31 00 2E FF 03 01
 (1742566875.447046)  can0  182   [7]  FB F7 7C DC FE FF 00
 (1742566875.447278)  can0  181   [7]  DC F7 7D C3 FE FF 00
 (1742566875.447499)  can0  281   [6]  2B 00 29 FF 02 01
 (1742566875.447745)  can0  282   [6]  31 00 2E FF 03 01
 (1742566875.452049)  can0  182   [7]  EC F7 7B DC FE FF 00
 (1742566875.452258)  can0  181   [7]  CB F7 7C C3 FE FF 00
 (1742566875.452455)  can0  281   [6]  2B 00 29 FF 02 01
 (1742566875.452659)  can0  282   [6]  34 00 2E FF 03 01
 (1742566875.457068)  can0  182   [7]  E9 F7 79 DC FE FF 00
 (1742566875.457204)  can0  181   [7]  BF F7 7B C3 FE FF 00
 (1742566875.457490)  can0  281   [6]  2D 00 29 FF 02 01
 (1742566875.457633)  can0  282   [6]  34 00 1A FF 03 01
 (1742566875.462042)  can0  182   [7]  DE F7 79 DC FE FF 00
 (1742566875.462175)  can0  181   [7]  AE F7 7A C3 FE FF 00
 (1742566875.462462)  can0  281   [6]  2B 00 29 FF 02 01
 (1742566875.462676)  can0  282   [6]  36 00 1A FF 03 01
 (1742566875.467016)  can0  182   [7]  CF F7 77 DC FE FF 00
 (1742566875.467183)  can0  181   [7]  A6 F7 79 C3 FE FF 00
 (1742566875.467423)  can0  281   [6]  2B 00 29 FF 02 01
 (1742566875.467647)  can0  282   [6]  38 00 2E FF 03 01
 (1742566875.472062)  can0  182   [7]  C9 F7 76 DC FE FF 00
 (1742566875.472225)  can0  181   [7]  97 F7 78 C3 FE FF 00
 (1742566875.472461)  can0  281   [6]  2B 00 29 FF 02 01
 (1742566875.472683)  can0  282   [6]  38 00 1A FF 03 01
 (1742566875.477007)  can0  182   [7]  B1 F7 75 DC FE FF 00
 (1742566875.477240)  can0  181   [7]  8E F7 77 C3 FE FF 00
 (1742566875.477463)  can0  281   [6]  2B 00 15 FF 02 01
 (1742566875.477600)  can0  282   [6]  3A 00 2E FF 02 01
 (1742566875.482043)  can0  182   [7]  97 F7 74 DC FE FF 00
 (1742566875.482279)  can0  181   [7]  7F F7 75 C3 FE FF 00
 (1742566875.482474)  can0  281   [6]  2B 00 15 FF 02 01
 (1742566875.482624)  can0  282   [6]  3A 00 2E FF 02 01
 (1742566875.483721)  can0  601   [8]  2B 43 40 00 C3 F5 00 00
 (1742566875.484116)  can0  581   [8]  60 43 40 00 00 00 00 00
 (1742566875.487023)  can0  182   [7]  86 F7 73 DC FE FF 00
 (1742566875.487267)  can0  181   [7]  64 F7 74 C3 FE FF 00
 (1742566875.487452)  can0  281   [6]  2D 00 29 FF 02 01
 (1742566875.487648)  can0  282   [6]  3A 00 1A FF 03 01
 (1742566875.491992)  can0  182   [7]  76 F7 72 DC FE FF 00
 (1742566875.492221)  can0  181   [7]  57 F7 73 C3 FE FF 00
 (1742566875.492428)  can0  281   [6]  2F 00 29 FF 02 01
 (1742566875.492640)  can0  282   [6]  38 00 1A FF 03 01
 (1742566875.493726)  can0  602   [8]  2B 43 40 00 C3 F5 00 00
 (1742566875.494035)  can0  582   [8]  60 43 40 00 00 00 00 00
 (1742566875.497010)  can0  182   [7]  67 F7 71 DC FE FF 00
 (1742566875.497238)  can0  181   [7]  4B F7 72 C3 FE FF 00
 (1742566875.497450)  can0  281   [6]  2F 00 29 FF 02 01
 (1742566875.497645)  can0  282   [6]  38 00 1A FF 03 01
 (1742566875.502008)  can0  182   [7]  52 F7 6F DC FE FF 00
 (1742566875.502252)  can0  181   [7]  3E F7 71 C3 FE FF 00
 (1742566875.502374)  can0  281   [6]  2F 00 15 FF 02 01
 (1742566875.502640)  can0  282   [6]  3A 00 1A FF 03 01
 (1742566875.507018)  can0  182   [7]  47 F7 6E DC FE FF 00
 (1742566875.507257)  can0  181   [7]  2F F7 70 C3 FE FF 00
 (1742566875.507382)  can0  281   [6]  2D 00 15 FF 02 01
 (1742566875.507640)  can0  282   [6]  38 00 1A FF 03 01
 (1742566875.512001)  can0  182   [7]  28 F7 6D DC FE FF 00
 (1742566875.512233)  can0  181   [7]  1F F7 6E C3 FE FF 00
 (1742566875.512374)  can0  281   [6]  2D 00 15 FF 03 01
 (1742566875.512574)  can0  282   [6]  36 00 1A FF 03 01
 (1742566875.517024)  can0  182   [7]  1F F7 6C DC FE FF 00
 (1742566875.517261)  can0  181   [7]  02 F7 6D C3 FE FF 00
 (1742566875.517383)  can0  281   [6]  2D 00 29 FF 02 01
 (1742566875.517671)  can0  282   [6]  34 00 1A FF 03 01
 (1742566875.522040)  can0  181   [7]  F3 F6 6C C3 FE FF 00
 (1742566875.522287)  can0  182   [7]  13 F7 6B DC FE FF 00
 (1742566875.522424)  can0  281   [6]  2F 00 15 FF 02 01
 (1742566875.522682)  can0  282   [6]  34 00 1A FF 03 01
 (1742566875.527023)  can0  182   [7]  09 F7 6A DC FE FF 00
 (1742566875.527256)  can0  181   [7]  E6 F6 6B C3 FE FF 00
 (1742566875.527483)  can0  282   [6]  31 00 1A FF 03 01
 (1742566875.527695)  can0  281   [6]  2D 00 15 FF 02 01
 (1742566875.532018)  can0  182   [7]  F5 F6 68 DC FE FF 00
 (1742566875.532262)  can0  181   [7]  DA F6 6A C3 FE FF 00
 (1742566875.532382)  can0  281   [6]  2D 00 15 FF 02 01
 (1742566875.532644)  can0  282   [6]  31 00 06 FF 02 01
 (1742566875.537041)  can0  182   [7]  EE F6 67 DC FE FF 00
 (1742566875.537261)  can0  181   [7]  D0 F6 68 C3 FE FF 00
 (1742566875.537478)  can0  281   [6]  2D 00 01 FF 02 01
 (1742566875.537689)  can0  282   [6]  36 00 1A FF 02 01
 (1742566875.542027)  can0  182   [7]  DF F6 66 DC FE FF 00
 (1742566875.542281)  can0  181   [7]  BB F6 67 C3 FE FF 00
 (1742566875.542480)  can0  281   [6]  2F 00 15 FF 02 01
 (1742566875.542692)  can0  282   [6]  36 00 1A FF 02 01
 (1742566875.547045)  can0  181   [7]  AB F6 66 C3 FE FF 00
 (1742566875.547263)  can0  182   [7]  D0 F6 65 DC FE FF 00
 (1742566875.547451)  can0  281   [6]  2F 00 15 FF 02 01
 (1742566875.547663)  can0  282   [6]  36 00 06 FF 02 01
 (1742566875.548726)  can0  601   [8]  2B 43 40 00 EE F4 00 00
 (1742566875.549097)  can0  581   [8]  60 43 40 00 00 00 00 00
 (1742566875.552054)  can0  182   [7]  C0 F6 63 DC FE FF 00
 (1742566875.552152)  can0  181   [7]  A0 F6 65 C3 FE FF 00
 (1742566875.552435)  can0  281   [6]  31 00 15 FF 02 01
 (1742566875.552660)  can0  282   [6]  36 00 06 FF 02 01
 (1742566875.557017)  can0  182   [7]  B3 F6 62 DC FE FF 00
